  can0  2C4   [8]  00 00 00 1D 40 80 40 EB
  can0  260   [8]  0E 00 00 00 00 00 00 78
  can0  2D0   [8]  00 00 09 00 B0 9C 00 2F
  can0  0B0   [6]  00 00 00 00 11 07
  can0  0B2   [6]  00 00 00 00 11 07
  can0  224   [8]  00 00 00 00 00 00 00 00
  can0  2D5   [2]  00 00
  can0  0B4   [8]  00 00 00 00 00 00 00 BC
  can0  0BA   [4]  06 00 00 C4
  can0  232   [4]  03 03 08 46
  can0  262   [5]  00 00 00 00 69
  can0  2C6   [8]  00 00 00 00 00 00 00 D0
  can0  0B0   [6]  00 00 00 00 11 08
  can0  0B2   [6]  00 00 00 00 11 08
  can0  260   [8]  0E 00 00 00 00 00 00 78
  can0  0B4   [8]  00 00 00 00 00 00 00 BC
  can0  223   [8]  00 00 00 00 00 00 00 2D
  can0  440   [8]  42 02 00 00 00 00 00 00
  can0  2C1   [8]  08 06 48 08 70 F2 00 8B
  can0  2C5   [4]  00 07 80 52
  can0  2C4   [8]  00 00 00 1D 40 80 40 EB
  can0  0B0   [6]  00 00 00 00 11 09
  can0  0B2   [6]  00 00 00 00 11 09
  can0  224   [8]  00 00 00 00 00 00 00 00
  can0  262   [5]  00 00 00 00 69
  can0  3A0   [8]  00 00 00 00 00 00 00 00
  can0  2D5   [2]  00 00
  can0  0B4   [8]  00 00 00 00 00 00 00 BC
  can0  0BA   [4]  06 00 00 C4
  can0  232   [4]  03 03 08 46
  can0  2D0   [8]  00 00 09 00 B0 9C 00 2F
  can0  0B0   [6]  00 00 00 00 11 0A
  can0  0B2   [6]  00 00 00 00 11 0A
  can0  260   [8]  0E 00 00 00 00 00 00 78
  can0  2C6   [8]  00 00 00 00 00 00 00 D0
  can0  0B4   [8]  00 00 00 00 00 00 00 BC
  can0  223   [8]  00 00 00 00 00 00 00 2D
  can0  2C4   [8]  00 00 00 1D 40 80 40 EB
  can0  262   [5]  00 00 00 00 69
  can0  0B0   [6]  00 00 00 00 11 0B
  can0  0B2   [6]  00 00 00 00 11 0B
  can0  224   [8]  00 00 00 00 00 00 00 00
  can0  2C1   [8]  08 06 48 08 70 F2 00 8B
  can0  2D5   [2]  00 00
  can0  0B4   [8]  00 00 00 00 00 00 00 BC
  can0  0BA   [4]  06 00 00 C4
  can0  232   [4]  03 03 08 46
  can0  260   [8]  0E 00 00 00 00 00 00 78
  can0  0B0   [6]  00 00 00 00 11 0C
  can0  0B2   [6]  00 00 00 00 11 0C
  can0  2D0   [8]  00 00 09 00 B0 9C 00 2F
  can0  0B4   [8]  00 00 00 00 00 00 00 BC
  can0  223   [8]  00 00 00 00 00 00 00 2D
  can0  262   [5]  00 00 00 00 69
  can0  2C4   [8]  00 00 00 1D 40 80 40 EB
  can0  2C5   [4]  00 07 80 52
  can0  2C6   [8]  00 00 00 00 00 00 00 D0
  can0  0B0   [6]  00 00 00 00 11 0D
  can0  0B2   [6]  00 00 00 00 11 0D
  can0  224   [8]  00 00 00 00 00 00 00 00
  can0  2D5   [2]  00 00
  can0  260   [8]  0E 00 00 00 00 00 00 78
  can0  0B4   [8]  00 00 00 00 00 00 00 BC
  can0  0BA   [4]  06 00 00 C4
  can0  232   [4]  03 03 08 46
  can0  2C1   [8]  08 06 48 08 70 F2 00 8B
  can0  0B0   [6]  00 00 00 00 11 0E
  can0  0B2   [6]  00 00 00 00 11 0E
  can0  262   [5]  00 00 00 00 69
  can0  0B4   [8]  00 00 00 00 00 00 00 BC
  can0  223   [8]  00 00 00 00 00 00 00 2D
  can0  2C4   [8]  00 00 00 1D 40 80 40 EB
  can0  2D0   [8]  00 00 09 00 B0 9C 00 2F
  can0  0B0   [6]  00 00 00 00 11 0F
  can0  0B2   [6]  00 00 00 00 11 0F
  can0  224   [8]  00 00 00 00 00 00 00 00
  can0  260   [8]  0E 00 00 00 00 00 00 78
  can0  620   [8]  10 00 00 00 30 40 00 50
  can0  2D5   [2]  00 00
  can0  0B4   [8]  00 00 00 00 00 00 00 BC
  can0  0BA   [4]  05 FF 00 C2
  can0  232   [4]  03 03 08 46
  can0  2C6   [8]  00 00 00 00 00 00 00 D0
  can0  262   [5]  00 00 00 00 69
  can0  0B0   [6]  00 00 00 00 11 00
  can0  0B2   [6]  00 00 00 00 11 00
  can0  442   [8]  40 02 00 00 02 00 00 00
  can0  0B4   [8]  00 00 00 00 00 00 00 BC
  can0  223   [8]  00 00 00 00 00 00 00 2D
  can0  2C1   [8]  08 06 48 08 70 F2 00 8B
  can0  2C4   [8]  00 00 00 1D 40 80 40 EB
  can0  2C5   [4]  00 07 80 52
  can0  260   [8]  0E 00 00 00 00 00 00 78
  can0  0B0   [6]  00 00 00 00 11 01
  can0  0B2   [6]  00 00 00 00 11 01
  can0  224   [8]  00 00 00 00 00 00 00 00
  can0  2D5   [2]  00 00
  can0  2D0   [8]  00 00 09 00 B0 9C 00 2F
  can0  0B4   [8]  00 00 00 00 00 00 00 BC
  can0  0BA   [4]  05 FF 00 C2
  can0  232   [4]  03 03 08 46
  can0  262   [5]  00 00 00 00 69
  can0  3A0   [8]  00 00 00 00 00 00 00 00
  can0  0B0   [6]  00 00 00 00 11 02
  can0  0B2   [6]  00 00 00 00 11 02
  can0  2C6   [8]  00 00 00 00 00 00 00 D0
  can0  260   [8]  0E 00 00 00 00 00 00 78
  can0  0B4   [8]  00 00 00 00 00 00 00 BC
  can0  223   [8]  00 00 00 00 00 00 00 2D
  can0  2C4   [8]  00 00 00 1D 40 80 40 EB
  can0  3B7   [8]  00 00 00 00 00 00 00 00
  can0  0B0   [6]  00 00 00 00 11 03
  can0  0B2   [6]  00 00 00 00 11 03
  can0  224   [8]  00 00 00 00 00 00 00 00
  can0  2C1   [8]  08 06 48 08 70 F2 00 8B
  can0  2D5   [2]  00 00
  can0  262   [5]  00 00 00 00 69
  can0  0B4   [8]  00 00 00 00 00 00 00 BC
  can0  0BA   [4]  05 FF 00 C2
  can0  232   [4]  03 03 08 46
  can0  0B0   [6]  00 00 00 00 11 04
  can0  0B2   [6]  00 00 00 00 11 04
  can0  260   [8]  0E 00 00 00 00 00 00 78
  can0  2D0   [8]  00 00 09 00 B0 9C 00 2F
  can0  4DC   [8]  1D 00 01 07 00 00 00 00
  can0  2C4   [8]  00 00 00 1D 40 80 40 EB
  can0  0B4   [8]  00 00 00 00 00 00 00 BC
  can0  223   [8]  00 00 00 00 00 00 00 2D
  can0  2C5   [4]  00 07 80 52
  can0  2C6   [8]  00 00 00 00 00 00 00 D0
  can0  262   [5]  00 00 00 00 69
  can0  0B0   [6]  00 00 00 00 11 05
  can0  0B2   [6]  00 00 00 00 11 05
  can0  224   [8]  00 00 00 00 00 00 00 00
  can0  2D5   [2]  00 00
  can0  0B4   [8]  00 00 00 00 00 00 00 BC
  can0  0BA   [4]  05 FF 00 C2
  can0  232   [4]  03 03 08 46
  can0  260   [8]  0E 00 00 00 00 00 00 78
  can0  2C1   [8]  08 06 48 08 70 F2 00 8B
  can0  0B0   [6]  00 00 00 00 11 06
  can0  0B2   [6]  00 00 00 00 11 06
  can0  2C4   [8]  00 00 00 1D 40 80 40 EB
  can0  0B4   [8]  00 00 00 00 00 00 00 BC
  can0  223   [8]  00 00 00 00 00 00 00 2D
  can0  262   [5]  00 00 00 00 69
  can0  2D0   [8]  00 00 09 00 B0 9C 00 2F
  can0  0B0   [6]  00 00 00 00 11 07
  can0  0B2   [6]  00 00 00 00 11 07
  can0  224   [8]  00 00 00 00 00 00 00 00
  can0  2D5   [2]  00 00
  can0  4DD   [8]  1E 00 00 05 00 00 00 00
  can0  260   [8]  0E 00 00 00 00 00 00 78
  can0  2C6   [8]  00 00 00 00 00 00 00 D0
  can0  3B0   [5]  00 00 00 48 00
  can0  0B4   [8]  00 00 00 00 00 00 00 BC
  can0  0BA   [4]  06 00 00 C4
  can0  232   [4]  03 03 08 46
  can0  7DF   [8]  02 01 0C 00 00 00 00 00
  can0  7E8   [8]  04 41 0C 00 00 00 00 00
  can0  0B0   [6]  00 00 00 00 11 08
  can0  0B2   [6]  00 00 00 00 11 08
  can0  262   [5]  00 00 00 00 69
  can0  440   [8]  42 02 00 00 00 00 00 00
  can0  2C4   [8]  00 00 00 1D 40 80 40 EB
  can0  2C1   [8]  08 06 48 08 70 F2 00 8B
  can0  0B4   [8]  00 00 00 00 00 00 00 BC
  can0  223   [8]  00 00 00 00 00 00 00 2D
  can0  2C5   [4]  00 07 80 52
  can0  0B0   [6]  00 00 00 00 11 09
  can0  0B2   [6]  00 00 00 00 11 09
  can0  224   [8]  00 00 00 00 00 00 00 00
  can0  260   [8]  0E 00 00 00 00 00 00 78
  can0  2D5   [2]  00 00
  can0  2D0   [8]  00 00 09 00 B0 9C 00 2F
  can0  0B4   [8]  00 00 00 00 00 00 00 BC
  can0  0BA   [4]  06 00 00 C4
  can0  232   [4]  03 03 08 46
  can0  262   [5]  00 00 00 00 69
  can0  3A0   [8]  00 00 00 00 00 00 00 00
  can0  0B0   [6]  00 00 00 00 11 0A
  can0  0B2   [6]  00 00 00 00 11 0A
  can0  2C6   [8]  00 00 00 00 00 00 00 D0
  can0  2C4   [8]  00 00 00 1D 40 80 40 EB
  can0  0B4   [8]  00 00 00 00 00 00 00 BC
  can0  223   [8]  00 00 00 00 00 00 00 2D
  can0  260   [8]  0E 00 00 00 00 00 00 78
  can0  2D5   [2]  00 00
  can0  0B0   [6]  00 00 00 00 11 0B
  can0  0B2   [6]  00 00 00 00 11 0B
  can0  224   [8]  00 00 00 00 00 00 00 00
  can0  2C1   [8]  08 06 48 08 70 F2 00 8B
  can0  0B4   [8]  00 00 00 00 00 00 00 BC
  can0  0BA   [4]  06 00 00 C4
  can0  232   [4]  03 03 08 46
  can0  262   [5]  00 00 00 00 69
  can0  0B0   [6]  00 00 00 00 11 0C
  can0  0B2   [6]  00 00 00 00 11 0C
  can0  2D0   [8]  00 00 09 00 B0 9C 00 2F
  can0  2C4   [8]  00 00 00 1D 40 80 40 EB
  can0  260   [8]  0E 00 00 00 00 00 00 78
  can0  380   [8]  00 20 00 00 00 00 27 00
  can0  0B4   [8]  00 00 00 00 00 00 00 BC
  can0  223   [8]  00 00 00 00 00 00 00 2D
  can0  2C5   [4]  00 07 80 52
  can0  2C6   [8]  00 00 00 00 00 00 00 D0
  can0  394   [1]  00
  can0  2D5   [2]  00 00
  can0  0B0   [6]  00 00 00 00 11 0D
  can0  0B2   [6]  00 00 00 00 11 0D
  can0  224   [8]  00 00 00 00 00 00 00 00
  can0  262   [5]  00 00 00 00 69
  can0  0B4   [8]  00 00 00 00 00 00 00 BC
  can0  0BA   [4]  06 00 00 C4
  can0  232   [4]  03 03 08 46
  can0  2C1   [8]  08 06 48 08 70 F2 00 8B
  can0  260   [8]  0E 00 00 00 00 00 00 78
  can0  0B0   [6]  00 00 00 00 11 0E
  can0  0B2   [6]  00 00 00 00 11 0E
  can0  2C4   [8]  00 00 00 1D 40 80 40 EB
  can0  0B4   [8]  00 00 00 00 00 00 00 BC
  can0  223   [8]  00 00 00 00 00 00 00 2D
  can0  2D0   [8]  00 00 09 00 B0 9C 00 2F
  can0  262   [5]  00 00 00 00 69
  can0  2D5   [2]  00 00
  can0  3A1   [8]  00 00 00 00 00 00 00 00
  can0  0B0   [6]  00 00 00 00 11 0F
  can0  0B2   [6]  00 00 00 00 11 0F
  can0  224   [8]  00 00 00 00 00 00 00 00
  can0  2C6   [8]  00 00 00 00 00 00 00 D0
  can0  0B4   [8]  00 00 00 00 00 00 00 BC
  can0  0BA   [4]  06 00 00 C4
  can0  232   [4]  03 03 08 46
  can0  260   [8]  0E 00 00 00 00 00 00 78
  can0  442   [8]  40 02 00 00 02 00 00 00
  can0  0B0   [6]  00 00 00 00 11 00
  can0  0B2   [6]  00 00 00 00 11 00
  can0  2C4   [8]  00 00 00 1D 40 80 40 EB
  can0  7DF   [8]  02 01 0D 00 00 00 00 00
  can0  2C1   [8]  08 06 48 08 70 F2 00 8B
  can0  7E8   [8]  03 41 0D 00 00 00 00 00
  can0  262   [5]  00 00 00 00 69
  can0  0B4   [8]  00 00 00 00 00 00 00 BC
  can0  223   [8]  00 00 00 00 00 00 00 2D
  can0  2C5   [4]  00 07 80 52
  can0  2D5   [2]  00 00
  can0  0B0   [6]  00 00 00 00 11 01
  can0  0B2   [6]  00 00 00 00 11 01
  can0  224   [8]  00 00 00 00 00 00 00 00
  can0  2D0   [8]  00 00 09 00 B0 9C 00 2F
  can0  260   [8]  0E 00 00 00 00 00 00 78
  can0  0B4   [8]  00 00 00 00 00 00 00 BC
  can0  0BA   [4]  06 00 00 C4
  can0  232   [4]  03 03 08 46
  can0  2C6   [8]  00 00 00 00 00 00 00 D0
  can0  0B0   [6]  00 00 00 00 11 02
  can0  0B2   [6]  00 00 00 00 11 02
  can0  2C4   [8]  00 00 00 1D 40 80 40 EB
  can0  262   [5]  00 00 00 00 69
  can0  3A0   [8]  00 00 00 00 00 00 00 00
  can0  0B4   [8]  00 00 00 00 00 00 00 BC
  can0  223   [8]  00 00 00 00 00 00 00 2D
  can0  2D5   [2]  00 00
  can0  260   [8]  0E 00 00 00 00 00 00 78
  can0  2C1   [8]  08 06 48 08 70 F2 00 8B
  can0  0B0   [6]  00 00 00 00 11 03
  can0  0B2   [6]  00 00 00 00 11 03
  can0  224   [8]  00 00 00 00 00 00 00 00
  can0  0B4   [8]  00 00 00 00 00 00 00 BC
  can0  0BA   [4]  06 00 00 C4
  can0  232   [4]  03 03 08 46
  can0  262   [5]  00 00 00 00 69
  can0  2D0   [8]  00 00 09 00 B0 9C 00 2F
  can0  0B0   [6]  00 00 00 00 11 04
  can0  0B2   [6]  00 00 00 00 11 04
  can0  2C4   [8]  00 00 00 1D 40 80 40 EB
  can0  0B4   [8]  00 00 00 00 00 00 00 BC
  can0  223   [8]  00 00 00 00 00 00 00 2D
  can0  2C5   [4]  00 07 80 52
  can0  2C6   [8]  00 00 00 00 00 00 00 D0
  can0  260   [8]  0E 00 00 00 00 00 00 78
  can0  2D5   [2]  00 00
  can0  0B0   [6]  00 00 00 00 11 05
  can0  0B2   [6]  00 00 00 00 11 05
  can0  224   [8]  00 00 00 00 00 00 00 00
  can0  262   [5]  00 00 00 00 69
  can0  0B4   [8]  00 00 00 00 00 00 00 BC
  can0  0BA   [4]  06 00 00 C4
  can0  232   [4]  03 03 08 46
  can0  2C1   [8]  08 06 48 08 70 F2 00 8B
  can0  0B0   [6]  00 00 00 00 11 06
  can0  0B2   [6]  00 00 00 00 11 06
  can0  2C4   [8]  00 00 00 1D 40 80 40 EB
  can0  260   [8]  0E 00 00 00 00 00 00 78
  can0  0B4   [8]  00 00 00 00 00 00 00 BC
  can0  223   [8]  00 00 00 00 00 00 00 2D
  can0  2D0   [8]  00 00 09 00 B0 9C 00 2F
  can0  2D5   [2]  00 00
  can0  0B0   [6]  00 00 00 00 11 07
  can0  0B2   [6]  00 00 00 00 11 07
  can0  224   [8]  00 00 00 00 00 00 00 00
  can0  262   [5]  00 00 00 00 69
  can0  2C6   [8]  00 00 00 00 00 00 00 D0
  can0  0B4   [8]  00 00 00 00 00 00 00 BC
  can0  0BA   [4]  06 00 00 C4
  can0  232   [4]  03 03 08 46
  can0  260   [8]  0E 00 00 00 00 00 00 78
  can0  2C4   [8]  00 00 00 1D 40 80 40 EB
  can0  0B0   [6]  00 00 00 00 11 08
  can0  0B2   [6]  00 00 00 00 11 08
  can0  440   [8]  42 02 00 00 00 00 00 00
  can0  620   [8]  10 00 00 00 30 40 00 50
  can0  2C1   [8]  08 06 48 08 70 F2 00 8B
  can0  0B4   [8]  00 00 00 00 00 00 00 BC
  can0  223   [8]  00 00 00 00 00 00 00 2D
  can0  2C5   [4]  00 07 80 52
  can0  2D5   [2]  00 00
  can0  262   [5]  00 00 00 00 69
  can0  7DF   [8]  02 01 04 00 00 00 00 00
  can0  7E8   [8]  03 41 04 00 00 00 00 00
  can0  0B0   [6]  00 00 00 00 11 09
  can0  0B2   [6]  00 00 00 00 11 09
  can0  224   [8]  00 00 00 00 00 00 00 00
  can0  2D0   [8]  00 00 09 00 B0 9C 00 2F
  can0  4C8   [8]  09 00 01 06 00 00 00 00
  can0  3B3   [3]  00 00 28
  can0  0B4   [8]  00 00 00 00 00 00 00 BC
  can0  0BA   [4]  06 00 00 C4
  can0  232   [4]  03 03 08 46
  can0  260   [8]  0E 00 00 00 00 00 00 78
  can0  2C6   [8]  00 00 00 00 00 00 00 D0
  can0  2C4   [8]  00 00 00 1D 40 80 40 EB
  can0  0B0   [6]  00 00 00 00 11 0A
  can0  0B2   [6]  00 00 00 00 11 0A
  can0  262   [5]  00 00 00 00 69
  can0  3A0   [8]  00 00 00 00 00 00 00 00
  can0  0B4   [8]  00 00 00 00 00 00 00 BC
  can0  223   [8]  00 00 00 00 00 00 00 2D
  can0  2D5   [2]  00 00
  can0  2C1   [8]  08 06 48 08 70 F2 00 8B
  can0  0B0   [6]  00 00 00 00 11 0B
  can0  0B2   [6]  00 00 00 00 11 0B
  can0  224   [8]  00 00 00 00 00 00 00 00
  can0  260   [8]  0E 00 00 00 00 00 00 78
  can0  610   [8]  20 00 00 64 00 00 00 00
  can0  0B4   [8]  00 00 00 00 00 00 00 BC
  can0  0BA   [4]  06 00 00 C4
  can0  232   [4]  03 03 08 46
  can0  3B7   [8]  00 00 00 00 00 00 00 00
  can0  2D0   [8]  00 00 09 00 B0 9C 00 2F
  can0  2C4   [8]  00 00 00 1D 40 80 40 EB
  can0  0B0   [6]  00 00 00 00 11 0C
  can0  0B2   [6]  00 00 00 00 11 0C
  can0  262   [5]  00 00 00 00 69
  can0  611   [8]  21 00 00 10 00 03 C1 4F
  can0  2C6   [8]  00 00 00 00 00 00 00 D0
  can0  0B4   [8]  00 00 00 00 00 00 00 BC
  can0  223   [8]  00 00 00 00 00 00 00 2D
  can0  2C5   [4]  00 07 80 52
  can0  2D5   [2]  00 00
  can0  260   [8]  0E 00 00 00 00 00 00 78
  can0  0B0   [6]  00 00 00 00 11 0D
  can0  0B2   [6]  00 00 00 00 11 0D
  can0  224   [8]  00 00 00 00 00 00 00 00
  can0  640   [8]  A8 00 00 00 01 8A 00 00
  can0  2C1   [8]  08 06 48 08 70 F2 00 8B
  can0  0B4   [8]  00 00 00 00 00 00 00 BC
  can0  0BA   [4]  06 00 00 C4
  can0  232   [4]  03 03 08 46
  can0  262   [5]  00 00 00 00 69
  can0  2C4   [8]  00 00 00 1D 40 80 40 EB
  can0  0B0   [6]  00 00 00 00 11 0E
  can0  0B2   [6]  00 00 00 00 11 0E
  can0  2D0   [8]  00 00 09 00 B0 9C 00 2F
  can0  2D5   [2]  00 00
  can0  0B4   [8]  00 00 00 00 00 00 00 BC
  can0  223   [8]  00 00 00 00 00 00 00 2D
  can0  260   [8]  0E 00 00 00 00 00 00 78
  can0  0B0   [6]  00 00 00 00 11 0F
  can0  0B2   [6]  00 00 00 00 11 0F
  can0  224   [8]  00 00 00 00 00 00 00 00
  can0  2C6   [8]  00 00 00 00 00 00 00 D0
  can0  262   [5]  00 00 00 00 69
  can0  0B4   [8]  00 00 00 00 00 00 00 BC
  can0  0BA   [4]  06 00 00 C4
  can0  232   [4]  03 03 08 46
  can0  442   [8]  40 02 00 00 02 00 00 00
  can0  2C4   [8]  00 00 00 1D 40 80 40 EB
  can0  0B0   [6]  00 00 00 00 11 00
  can0  0B2   [6]  00 00 00 00 11 00
  can0  2C1   [8]  08 06 48 08 70 F2 00 8B
  can0  260   [8]  0E 00 00 00 00 00 00 78
  can0  2D5   [2]  00 00
  can0  0B4   [8]  00 00 00 00 00 00 00 BC
  can0  223   [8]  00 00 00 00 00 00 00 2D
  can0  2C5   [4]  00 07 80 52
  can0  262   [5]  00 00 00 00 69
  can0  0B0   [6]  00 00 00 00 11 01
  can0  0B2   [6]  00 00 00 00 11 01
  can0  224   [8]  00 00 00 00 00 00 00 00
  can0  2D0   [8]  00 00 09 00 B0 9C 00 2F
  can0  7DF   [8]  02 01 05 00 00 00 00 00
  can0  7E8   [8]  03 41 05 41 00 00 00 00
  can0  0B4   [8]  00 00 00 00 00 00 00 BC
  can0  0BA   [4]  06 00 00 C4
  can0  232   [4]  03 03 08 46
  can0  2C4   [8]  00 00 00 1D 40 80 40 EB
  can0  2C6   [8]  00 00 00 00 00 00 00 D0
  can0  260   [8]  0E 00 00 00 00 00 00 78
  can0  0B0   [6]  00 00 00 00 11 02
  can0  0B2   [6]  00 00 00 00 11 02
  can0  2D5   [2]  00 00
  can0  0B4   [8]  00 00 00 00 00 00 00 BC
  can0  223   [8]  00 00 00 00 00 00 00 2D
  can0  262   [5]  00 00 00 00 69
  can0  2C1   [8]  08 06 48 08 70 F2 00 8B
  can0  3A0   [8]  00 00 00 00 00 00 00 00
  can0  0B0   [6]  00 00 00 00 11 03
  can0  0B2   [6]  00 00 00 00 11 03
  can0  224   [8]  00 00 00 00 00 00 00 00
  can0  260   [8]  0E 00 00 00 00 00 00 78
  can0  0B4   [8]  00 00 00 00 00 00 00 BC
  can0  0BA   [4]  06 00 00 C4
  can0  232   [4]  03 03 08 46
  can0  2C4   [8]  00 00 00 1D 40 80 40 EB
  can0  2D0   [8]  00 00 09 00 B0 9C 00 2F
  can0  0B0   [6]  00 00 00 00 11 04
  can0  0B2   [6]  00 00 00 00 11 04
  can0  262   [5]  00 00 00 00 69
  can0  2C6   [8]  00 00 00 00 00 00 00 D0
  can0  2D5   [2]  00 00
  can0  2C5   [4]  00 07 80 52
  can0  0B4   [8]  00 00 00 00 00 00 00 BC
  can0  223   [8]  00 00 00 00 00 00 00 2D
  can0  0B0   [6]  00 00 00 00 11 05
  can0  0B2   [6]  00 00 00 00 11 05
  can0  224   [8]  00 00 00 00 00 00 00 00
  can0  260   [8]  0E 00 00 00 00 00 00 78
  can0  2C1   [8]  08 06 48 08 70 F2 00 8B
  can0  0B4   [8]  00 00 00 00 00 00 00 BC
  can0  0BA   [4]  06 00 00 C4
  can0  232   [4]  03 03 08 46
  can0  394   [1]  00
  can0  2C4   [8]  00 00 00 1D 40 80 40 EB
  can0  262   [5]  00 00 00 00 69
  can0  0B0   [6]  00 00 00 00 11 06
  can0  0B2   [6]  00 00 00 00 11 06
  can0  2D0   [8]  00 00 09 00 B0 9C 00 2F
  can0  2D5   [2]  00 00
  can0  0B4   [8]  00 00 00 00 00 00 00 BC
  can0  223   [8]  00 00 00 00 00 00 00 2D
  can0  260   [8]  0E 00 00 00 00 00 00 78
  can0  2C6   [8]  00 00 00 00 00 00 00 D0
  can0  0B0   [6]  00 00 00 00 11 07
  can0  0B2   [6]  00 00 00 00 11 07
  can0  224   [8]  00 00 00 00 00 00 00 00
  can0  0B4   [8]  00 00 00 00 00 00 00 BC
  can0  0BA   [4]  06 00 00 C4
  can0  232   [4]  03 03 08 46
  can0  2C4   [8]  00 00 00 1D 40 80 40 EB
  can0  262   [5]  00 00 00 00 69
  can0  440   [8]  42 02 00 00 00 00 00 00
  can0  2C1   [8]  08 06 48 08 70 F2 00 8B
  can0  0B0   [6]  00 00 00 00 11 08
  can0  0B2   [6]  00 00 00 00 11 08
  can0  2D5   [2]  00 00
  can0  621   [8]  11 00 00 00 00 00 00 00
  can0  260   [8]  0E 00 00 00 00 00 00 78
  can0  2C5   [4]  00 07 80 52
  can0  0B4   [8]  00 00 00 00 00 00 00 BC
  can0  223   [8]  00 00 00 00 00 00 00 2D
  can0  2D0   [8]  00 00 09 00 B0 9C 00 2F
  can0  0B0   [6]  00 00 00 00 11 09
  can0  0B2   [6]  00 00 00 00 11 09
  can0  224   [8]  00 00 00 00 00 00 00 00
  can0  622   [8]  12 00 00 00 00 00 00 00
  can0  262   [5]  00 00 00 00 69
  can0  2C4   [8]  00 00 00 1D 40 80 40 EB
  can0  0B4   [8]  00 00 00 00 00 00 00 BC
  can0  0BA   [4]  06 00 00 C4
  can0  232   [4]  03 03 08 46
  can0  4C3   [8]  04 00 12 07 00 00 00 00
  can0  2C6   [8]  00 00 00 00 00 00 00 D0
  can0  7DF   [8]  02 01 0F 00 00 00 00 00
  can0  7E8   [8]  03 41 0F 49 00 00 00 00
  can0  624   [8]  1A 00 00 49 49 00 00 00
  can0  0B0   [6]  00 00 00 00 11 0A
  can0  0B2   [6]  00 00 00 00 11 0A
  can0  260   [8]  0E 00 00 00 00 00 00 78
  can0  2D5   [2]  00 00
  can0  0B4   [8]  00 00 00 00 00 00 00 BC
  can0  223   [8]  00 00 00 00 00 00 00 2D
  can0  2C1   [8]  08 06 48 08 70 F2 00 8B
  can0  630   [8]  17 00 00 00 00 00 00 00
  can0  262   [5]  00 00 00 00 69
  can0  0B0   [6]  00 00 00 00 11 0B
  can0  0B2   [6]  00 00 00 00 11 0B
  can0  224   [8]  00 00 00 00 00 00 00 00
  can0  3A0   [8]  00 00 00 00 00 00 00 00
  can0  2C4   [8]  00 00 00 1D 40 80 40 EB
  can0  0B4   [8]  00 00 00 00 00 00 00 BC
  can0  0BA   [4]  06 00 00 C4
  can0  232   [4]  03 03 08 46
  can0  2D0   [8]  00 00 09 00 B0 9C 00 2F
  can0  638   [8]  13 00 10 00 00 00 00 00
  can0  260   [8]  0E 00 00 00 00 00 00 78
  can0  0B0   [6]  00 00 00 00 11 0C
  can0  0B2   [6]  00 00 00 00 11 0C
  can0  2D5   [2]  00 00
  can0  2C6   [8]  00 00 00 00 00 00 00 D0
  can0  2C5   [4]  00 07 80 52
  can0  0B4   [8]  00 00 00 00 00 00 00 BC
  can0  223   [8]  00 00 00 00 00 00 00 2D
  can0  262   [5]  00 00 00 00 69
  can0  0B0   [6]  00 00 00 00 11 0D
  can0  0B2   [6]  00 00 00 00 11 0D
  can0  224   [8]  00 00 00 00 00 00 00 00
  can0  2C1   [8]  08 06 48 08 70 F2 00 8B
  can0  3B4   [8]  00 00 32 4C 80 00 00 00
  can0  260   [8]  0E 00 00 00 00 00 00 78
  can0  2C4   [8]  00 00 00 1D 40 80 40 EB
  can0  0B4   [8]  00 00 00 00 00 00 00 BC
  can0  0BA   [4]  06 00 00 C4
  can0  232   [4]  03 03 08 46
  can0  0B0   [6]  00 00 00 00 11 0E
  can0  0B2   [6]  00 00 00 00 11 0E
  can0  2D5   [2]  00 00
  can0  2D0   [8]  00 00 09 00 B0 9C 00 2F
  can0  262   [5]  00 00 00 00 69
  can0  0B4   [8]  00 00 00 00 00 00 00 BC
  can0  223   [8]  00 00 00 00 00 00 00 2D
  can0  2C6   [8]  00 00 00 00 00 00 00 D0
  can0  0B0   [6]  00 00 00 00 11 0F
  can0  0B2   [6]  00 00 00 00 11 0F
  can0  224   [8]  00 00 00 00 00 00 00 00
  can0  260   [8]  0E 00 00 00 00 00 00 78
  can0  442   [8]  40 02 00 00 02 00 00 00
  can0  2C4   [8]  00 00 00 1D 40 80 40 EB
  can0  0B4   [8]  00 00 00 00 00 00 00 BC
  can0  0BA   [4]  06 00 00 C4
  can0  232   [4]  03 03 08 46
  can0  2C1   [8]  08 06 48 08 70 F2 00 8B
  can0  262   [5]  00 00 00 00 69
  can0  2D5   [2]  00 00
  can0  0B0   [6]  00 00 00 00 11 00
  can0  0B2   [6]  00 00 00 00 11 00
  can0  2C5   [4]  00 07 80 52
  can0  0B4   [8]  00 00 00 00 00 00 00 BC
  can0  223   [8]  00 00 00 00 00 00 00 2D
  can0  260   [8]  0E 00 00 00 00 00 00 78
  can0  2D0   [8]  00 00 09 00 B0 9C 00 2F
  can0  620   [8]  10 00 00 00 30 40 00 50
  can0  0B0   [6]  00 00 00 00 11 01
  can0  0B2   [6]  00 00 00 00 11 01
  can0  224   [8]  00 00 00 00 00 00 00 00
  can0  2C4   [8]  00 00 00 1D 40 80 40 EB
  can0  2C6   [8]  00 00 00 00 00 00 00 D0
  can0  262   [5]  00 00 00 00 69
  can0  0B4   [8]  00 00 00 00 00 00 00 BC
  can0  0BA   [4]  06 00 00 C4
  can0  232   [4]  03 03 08 46
  can0  2D5   [2]  00 00
  can0  0B0   [6]  00 00 00 00 11 02
  can0  0B2   [6]  00 00 00 00 11 02
  can0  7DF   [8]  02 01 0B 00 00 00 00 00
  can0  260   [8]  0E 00 00 00 00 00 00 78
  can0  2C1   [8]  08 06 48 08 70 F2 00 8B
  can0  0B4   [8]  00 00 00 00 00 00 00 BC
  can0  223   [8]  00 00 00 00 00 00 00 2D
  can0  0B0   [6]  00 00 00 00 11 03
  can0  0B2   [6]  00 00 00 00 11 03
  can0  224   [8]  00 00 00 00 00 00 00 00
  can0  262   [5]  00 00 00 00 69
  can0  2C4   [8]  00 00 00 1D 40 80 40 EB
  can0  3A0   [8]  00 00 00 00 00 00 00 00
  can0  2D0   [8]  00 00 09 00 B0 9C 00 2F
  can0  0B4   [8]  00 00 00 00 00 00 00 BC
  can0  0BA   [4]  06 00 00 C4
  can0  232   [4]  03 03 08 46
  can0  2D5   [2]  00 00
  can0  260   [8]  0E 00 00 00 00 00 00 78
  can0  0B0   [6]  00 00 00 00 11 04
  can0  0B2   [6]  00 00 00 00 11 04
  can0  2C6   [8]  00 00 00 00 00 00 00 D0
  can0  2C5   [4]  00 07 80 52
  can0  0B4   [8]  00 00 00 00 00 00 00 BC
  can0  223   [8]  00 00 00 00 00 00 00 2D
  can0  3B7   [8]  00 00 00 00 00 00 00 00
  can0  262   [5]  00 00 00 00 69
  can0  0B0   [6]  00 00 00 00 11 05
  can0  0B2   [6]  00 00 00 00 11 05
  can0  224   [8]  00 00 00 00 00 00 00 00
  can0  2C1   [8]  08 06 48 08 70 F2 00 8B
  can0  2C4   [8]  00 00 00 1D 40 80 40 EB
  can0  0B4   [8]  00 00 00 00 00 00 00 BC
  can0  0BA   [4]  06 00 00 C4
  can0  232   [4]  03 03 08 46
  can0  260   [8]  0E 00 00 00 00 00 00 78
  can0  2D5   [2]  00 00
  can0  0B0   [6]  00 00 00 00 11 06
  can0  0B2   [6]  00 00 00 00 11 06
  can0  2D0   [8]  00 00 09 00 B0 9C 00 2F
  can0  262   [5]  00 00 00 00 69
  can0  0B4   [8]  00 00 00 00 00 00 00 BC
  can0  223   [8]  00 00 00 00 00 00 00 2D
  can0  2C6   [8]  00 00 00 00 00 00 00 D0
  can0  0B0   [6]  00 00 00 00 11 07
  can0  0B2   [6]  00 00 00 00 11 07
  can0  224   [8]  00 00 00 00 00 00 00 00
  can0  2C4   [8]  00 00 00 1D 40 80 40 EB
  can0  260   [8]  0E 00 00 00 00 00 00 78
  can0  0B4   [8]  00 00 00 00 00 00 00 BC
  can0  0BA   [4]  05 FF 00 C2
  can0  232   [4]  03 03 08 46
  can0  440   [8]  42 02 00 00 00 00 00 00
  can0  2C1   [8]  08 06 48 08 70 F2 00 8B
  can0  2D5   [2]  00 00
  can0  0B0   [6]  00 00 00 00 11 08
  can0  0B2   [6]  00 00 00 00 11 08
  can0  262   [5]  00 00 00 00 69
  can0  2C5   [4]  00 07 80 52
  can0  0B4   [8]  00 00 00 00 00 00 00 BC
  can0  223   [8]  00 00 00 00 00 00 00 2D
  can0  2D0   [8]  00 00 09 00 B0 9C 00 2F
  can0  260   [8]  0E 00 00 00 00 00 00 78
  can0  0B0   [6]  00 00 00 00 11 09
  can0  0B2   [6]  00 00 00 00 11 09
  can0  224   [8]  00 00 00 00 00 00 00 00
  can0  2C4   [8]  00 00 00 1D 40 80 40 EB
  can0  2C6   [8]  00 00 00 00 00 00 00 D0
  can0  0B4   [8]  00 00 00 00 00 00 00 BC
  can0  0BA   [4]  06 00 00 C4
  can0  232   [4]  03 03 08 46
  can0  2D5   [2]  00 00
  can0  262   [5]  00 00 00 00 69
  can0  0B0   [6]  00 00 00 00 11 0A
  can0  0B2   [6]  00 00 00 00 11 0A
  can0  2C1   [8]  08 06 48 08 70 F2 00 8B
  can0  0B4   [8]  00 00 00 00 00 00 00 BC
  can0  223   [8]  00 00 00 00 00 00 00 2D
  can0  260   [8]  0E 00 00 00 00 00 00 78
  can0  2C4   [8]  00 00 00 1D 40 80 40 EB
  can0  0B0   [6]  00 00 00 00 11 0B
  can0  0B2   [6]  00 00 00 00 11 0B
  can0  224   [8]  00 00 00 00 00 00 00 00
  can0  2D0   [8]  00 00 09 00 B0 9C 00 2F
  can0  262   [5]  00 00 00 00 69
  can0  0B4   [8]  00 00 00 00 00 00 00 BC
  can0  0BA   [4]  06 00 00 C4
  can0  232   [4]  03 03 08 46
  can0  3A0   [8]  00 00 00 00 00 00 00 00
  can0  2D5   [2]  00 00
  can0  2C6   [8]  00 00 00 00 00 00 00 D0
  can0  0B0   [6]  00 00 00 00 11 0C
  can0  0B2   [6]  00 00 00 00 11 0C
  can0  260   [8]  0E 00 00 00 00 00 00 78
  can0  2C5   [4]  00 07 80 52
  can0  0B4   [8]  00 00 00 00 00 00 00 BC
  can0  223   [8]  00 00 00 00 00 00 00 2D
  can0  3B1   [8]  00 00 02 2A A0 00 00 00
  can0  2C1   [8]  08 06 48 08 70 F2 00 8B
  can0  2C4   [8]  00 00 00 1D 40 80 40 EB
  can0  0B0   [6]  00 00 00 00 11 0D
  can0  0B2   [6]  00 00 00 00 11 0D
  can0  224   [8]  00 00 00 00 00 00 00 00
  can0  262   [5]  00 00 00 00 69
  can0  0B4   [8]  00 00 00 00 00 00 00 BC
  can0  0BA   [4]  06 00 00 C4
  can0  232   [4]  03 03 08 46
  can0  2D5   [2]  00 00
  can0  2D0   [8]  00 00 09 00 B0 9C 00 2F
  can0  260   [8]  0E 00 00 00 00 00 00 78
  can0  4C1   [8]  01 00 09 08 00 00 00 00
  can0  0B0   [6]  00 00 00 00 11 0E
  can0  0B2   [6]  00 00 00 00 11 0E
  can0  394   [1]  00
  can0  0B4   [8]  00 00 00 00 00 00 00 BC
  can0  223   [8]  00 00 00 00 00 00 00 2D
  can0  2C6   [8]  00 00 00 00 00 00 00 D0
  can0  262   [5]  00 00 00 00 69
  can0  2C4   [8]  00 00 00 1D 40 80 40 EB
  can0  0B0   [6]  00 00 00 00 11 0F
  can0  0B2   [6]  00 00 00 00 11 0F
  can0  224   [8]  00 00 00 00 00 00 00 00
  can0  0B4   [8]  00 00 00 00 00 00 00 BC
  can0  0BA   [4]  06 00 00 C4
  can0  232   [4]  03 03 08 46
  can0  260   [8]  0E 00 00 00 00 00 00 78
  can0  2C1   [8]  08 06 48 08 70 F2 00 8B
  can0  2D5   [2]  00 00
  can0  442   [8]  40 02 00 00 02 00 00 00
  can0  0B0   [6]  00 00 00 00 11 00
  can0  0B2   [6]  00 00 00 00 11 00
  can0  2C5   [4]  00 07 80 52
  can0  262   [5]  00 00 00 00 69
  can0  0B4   [8]  00 00 00 00 00 00 00 BC
  can0  223   [8]  00 00 00 00 00 00 00 2D
  can0  2D0   [8]  00 00 09 00 B0 9C 00 2F
  can0  2C4   [8]  00 00 00 1D 40 80 40 EB
  can0  0B0   [6]  00 00 00 00 11 01
  can0  0B2   [6]  00 00 00 00 11 01
  can0  224   [8]  00 00 00 00 00 00 00 00
  can0  2C6   [8]  00 00 00 00 00 00 00 D0
  can0  260   [8]  0E 00 00 00 00 00 00 78
  can0  0B4   [8]  00 00 00 00 00 00 00 BC
  can0  0BA   [4]  06 00 00 C4
  can0  232   [4]  03 03 08 46
  can0  2D5   [2]  00 00
  can0  0B0   [6]  00 00 00 00 11 02
  can0  0B2   [6]  00 00 00 00 11 02
  can0  262   [5]  00 00 00 00 69
  can0  2C1   [8]  08 06 48 08 70 F2 00 8B
  can0  0B4   [8]  00 00 00 00 00 00 00 BC
  can0  223   [8]  00 00 00 00 00 00 00 2D
  can0  2C4   [8]  00 00 00 1D 40 80 40 EB
  can0  260   [8]  0E 00 00 00 00 00 00 78
  can0  0B0   [6]  00 00 00 00 11 03
  can0  0B2   [6]  00 00 00 00 11 03
  can0  224   [8]  00 00 00 00 00 00 00 00
  can0  2D0   [8]  00 00 09 00 B0 9C 00 2F
  can0  2D5   [2]  00 00
  can0  0B4   [8]  00 00 00 00 00 00 00 BC
  can0  0BA   [4]  06 01 00 C5
  can0  232   [4]  03 03 08 46
  can0  262   [5]  00 00 00 00 69
  can0  2C6   [8]  00 00 00 00 00 00 00 D0
  can0  3A0   [8]  00 00 00 00 00 00 00 00
  can0  3B3   [3]  00 00 28
  can0  38A   [5]  0C 04 00 00 00
  can0  0B0   [6]  00 00 00 00 11 04
  can0  0B2   [6]  00 00 00 00 11 04
  can0  2C5   [4]  00 07 80 52
  can0  0B4   [8]  00 00 00 00 00 00 00 BC
  can0  223   [8]  00 00 00 00 00 00 00 2D
  can0  260   [8]  0E 00 00 00 00 00 00 78
  can0  2C4   [8]  00 00 00 1D 40 80 40 EB
  can0  610   [8]  20 00 00 64 00 00 00 00
  can0  2C1   [8]  08 06 48 08 70 F2 00 8B
  can0  0B0   [6]  00 00 00 00 11 05
  can0  0B2   [6]  00 00 00 00 11 05
  can0  224   [8]  00 00 00 00 00 00 00 00
  can0  262   [5]  00 00 00 00 69
  can0  2D5   [2]  00 00
  can0  0B4   [8]  00 00 00 00 00 00 00 BC
  can0  0BA   [4]  06 00 00 C4
  can0  232   [4]  03 03 08 46
  can0  2D0   [8]  00 00 09 00 B0 9C 00 2F
  can0  0B0   [6]  00 00 00 00 11 06
  can0  0B2   [6]  00 00 00 00 11 06
  can0  260   [8]  0E 00 00 00 00 00 00 78
  can0  2C6   [8]  00 00 00 00 00 00 00 D0
  can0  0B4   [8]  00 00 00 00 00 00 00 BC
  can0  223   [8]  00 00 00 00 00 00 00 2D
  can0  2C4   [8]  00 00 00 1D 40 80 40 EB
  can0  262   [5]  00 00 00 00 69
  can0  0B0   [6]  00 00 00 00 11 07
  can0  0B2   [6]  00 00 00 00 11 07
  can0  224   [8]  00 00 00 00 00 00 00 00
  can0  2D5   [2]  00 00
  can0  2C1   [8]  08 06 48 08 70 F2 00 8B
  can0  0B4   [8]  00 00 00 00 00 00 00 BC
  can0  0BA   [4]  06 00 00 C4
  can0  232   [4]  03 03 08 46
  can0  260   [8]  0E 00 00 00 00 00 00 78
  can0  0B0   [6]  00 00 00 00 11 08
  can0  0B2   [6]  00 00 00 00 11 08
  can0  440   [8]  42 02 00 00 00 00 00 00
  can0  2C5   [4]  00 07 80 52
  can0  2D0   [8]  00 00 09 00 B0 9C 00 2F
  can0  0B4   [8]  00 00 00 00 00 00 00 BC
  can0  223   [8]  00 00 00 00 00 00 00 2D
  can0  262   [5]  00 00 00 00 69
  can0  2C4   [8]  00 00 00 1D 40 80 40 EB
  can0  0B0   [6]  00 00 00 00 11 09
  can0  0B2   [6]  00 00 00 00 11 09
  can0  224   [8]  00 00 00 00 00 00 00 00
  can0  2C6   [8]  00 00 00 00 00 00 00 D0
  can0  2D5   [2]  00 00
  can0  260   [8]  0E 00 00 00 00 00 00 78
  can0  0B4   [8]  00 00 00 00 00 00 00 BC
  can0  0BA   [4]  06 00 00 C4
  can0  232   [4]  03 03 08 46
  can0  620   [8]  10 00 00 00 30 40 00 50
  can0  0B0   [6]  00 00 00 00 11 0A
  can0  0B2   [6]  00 00 00 00 11 0A
  can0  2C1   [8]  08 06 48 08 70 F2 00 8B
  can0  262   [5]  00 00 00 00 69
  can0  0B4   [8]  00 00 00 00 00 00 00 BC
  can0  223   [8]  00 00 00 00 00 00 00 2D
  can0  2C4   [8]  00 00 00 1D 40 80 40 EB
  can0  0B0   [6]  00 00 00 00 11 0B
  can0  0B2   [6]  00 00 00 00 11 0B
  can0  224   [8]  00 00 00 00 00 00 00 00
  can0  2D0   [8]  00 00 09 00 B0 9C 00 2F
  can0  260   [8]  0E 00 00 00 00 00 00 78
  can0  2D5   [2]  00 00
  can0  0B4   [8]  00 00 00 00 00 00 00 BC
  can0  0BA   [4]  05 FF 00 C2
  can0  232   [4]  03 03 08 46
  can0  2C6   [8]  00 00 00 00 00 00 00 D0
  can0  262   [5]  00 00 00 00 69
  can0  0B0   [6]  00 00 00 00 11 0C
  can0  0B2   [6]  00 00 00 00 11 0C
  can0  3A0   [8]  00 00 00 00 00 00 00 00
  can0  2C5   [4]  00 07 80 52
  can0  0B4   [8]  00 00 00 00 00 00 00 BC
  can0  223   [8]  00 00 00 00 00 00 00 2D
  can0  2C4   [8]  00 00 00 1D 40 80 40 EB
  can0  2C1   [8]  08 06 48 08 70 F2 00 8B
  can0  260   [8]  0E 00 00 00 00 00 00 78
  can0  0B0   [6]  00 00 00 00 11 0D
  can0  0B2   [6]  00 00 00 00 11 0D
  can0  224   [8]  00 00 00 00 00 00 00 00
  can0  2D5   [2]  00 00
  can0  0B4   [8]  00 00 00 00 00 00 00 BC
  can0  0BA   [4]  06 00 00 C4
  can0  232   [4]  03 03 08 46
  can0  3B7   [8]  00 00 00 00 00 00 00 00
  can0  262   [5]  00 00 00 00 69
  can0  2D0   [8]  00 00 09 00 B0 9C 00 2F
  can0  0B0   [6]  00 00 00 00 11 0E
  can0  0B2   [6]  00 00 00 00 11 0E
  can0  2C6   [8]  00 00 00 00 00 00 00 D0
  can0  260   [8]  0E 00 00 00 00 00 00 78
  can0  2C4   [8]  00 00 00 1D 40 80 40 EB
  can0  0B4   [8]  00 00 00 00 00 00 00 BC
  can0  223   [8]  00 00 00 00 00 00 00 2D
  can0  0B0   [6]  00 00 00 00 11 0F
  can0  0B2   [6]  00 00 00 00 11 0F
  can0  224   [8]  00 00 00 00 00 00 00 00
  can0  2D5   [2]  00 00
  can0  262   [5]  00 00 00 00 69
  can0  7DF   [8]  02 01 10 00 00 00 00 00
  can0  2C1   [8]  08 06 48 08 70 F2 00 8B
  can0  7E8   [8]  04 41 10 00 07 00 00 00
  can0  0B4   [8]  00 00 00 00 00 00 00 BC
  can0  0BA   [4]  06 00 00 C4
  can0  232   [4]  03 03 08 46
  can0  0B0   [6]  00 00 00 00 11 00
  can0  0B2   [6]  00 00 00 00 11 00
  can0  260   [8]  0E 00 00 00 00 00 00 78
  can0  2C5   [4]  00 07 80 52
  can0  2D0   [8]  00 00 09 00 B0 9C 00 2F
  can0  442   [8]  40 02 00 00 02 00 00 00
  can0  2C4   [8]  00 00 00 1D 40 80 40 EB
  can0  0B4   [8]  00 00 00 00 00 00 00 BC
  can0  223   [8]  00 00 00 00 00 00 00 2D
  can0  262   [5]  00 00 00 00 69
  can0  2C6   [8]  00 00 00 00 00 00 00 D0
  can0  0B0   [6]  00 00 00 00 11 01
  can0  0B2   [6]  00 00 00 00 11 01
  can0  224   [8]  00 00 00 00 00 00 00 00
  can0  2D5   [2]  00 00
  can0  0B4   [8]  00 00 00 00 00 00 00 BC
  can0  0BA   [4]  06 00 00 C4
  can0  232   [4]  03 03 08 46
  can0  260   [8]  0E 00 00 00 00 00 00 78
  can0  2C1   [8]  08 06 48 08 70 F2 00 8B
  can0  0B0   [6]  00 00 00 00 11 02
  can0  0B2   [6]  00 00 00 00 11 02
  can0  2C4   [8]  00 00 00 1D 40 80 40 EB
  can0  0B4   [8]  00 00 00 00 00 00 00 BC
  can0  223   [8]  00 00 00 00 00 00 00 2D
  can0  262   [5]  00 00 00 00 69
  can0  2D0   [8]  00 00 09 00 B0 9C 00 2F
  can0  0B0   [6]  00 00 00 00 11 03
  can0  0B2   [6]  00 00 00 00 11 03
  can0  224   [8]  00 00 00 00 00 00 00 00
  can0  2D5   [2]  00 00
  can0  260   [8]  0E 00 00 00 00 00 00 78
  can0  0B4   [8]  00 00 00 00 00 00 00 BC
  can0  0BA   [4]  06 01 00 C5
  can0  232   [4]  03 03 08 46
  can0  2C6   [8]  00 00 00 00 00 00 00 D0
  can0  0B0   [6]  00 00 00 00 11 04
  can0  0B2   [6]  00 00 00 00 11 04
  can0  262   [5]  00 00 00 00 69
  can0  2C5   [4]  00 07 80 52
  can0  2C4   [8]  00 00 00 1D 40 80 40 EB
  can0  3A0   [8]  00 00 00 00 00 00 00 00
  can0  0B4   [8]  00 00 00 00 00 00 00 BC
  can0  223   [8]  00 00 00 00 00 00 00 2D
  can0  2C1   [8]  08 06 48 08 70 F2 00 8B
  can0  3D6   [7]  00 00 00 00 00 00 00
  can0  0B0   [6]  00 00 00 00 11 05
  can0  0B2   [6]  00 00 00 00 11 05
  can0  224   [8]  00 00 00 00 00 00 00 00
  can0  260   [8]  0E 00 00 00 00 00 00 78
  can0  2D5   [2]  00 00
  can0  0B4   [8]  00 00 00 00 00 00 00 BC
  can0  0BA   [4]  06 00 00 C4
  can0  232   [4]  03 03 08 46
  can0  2D0   [8]  00 00 09 00 B0 9C 00 2F
  can0  262   [5]  00 00 00 00 69
  can0  0B0   [6]  00 00 00 00 11 06
  can0  0B2   [6]  00 00 00 00 11 06
  can0  2C6   [8]  00 00 00 00 00 00 00 D0
  can0  2C4   [8]  00 00 00 1D 40 80 40 EB
  can0  0B4   [8]  00 00 00 00 00 00 00 BC
  can0  223   [8]  00 00 00 00 00 00 00 2D
  can0  260   [8]  0E 00 00 00 00 00 00 78
  can0  4DC   [8]  1D 00 01 07 00 00 00 00
  can0  2D5   [2]  00 00
  can0  0B0   [6]  00 00 00 00 11 07
  can0  0B2   [6]  00 00 00 00 11 07
  can0  224   [8]  00 00 00 00 00 00 00 00
  can0  394   [1]  00
  can0  2C1   [8]  08 06 48 08 70 F2 00 8B
  can0  0B4   [8]  00 00 00 00 00 00 00 BC
  can0  0BA   [4]  06 00 00 C4
  can0  232   [4]  03 03 08 46
  can0  262   [5]  00 00 00 00 69
  can0  7DF   [8]  02 01 11 00 00 00 00 00
  can0  7E8   [8]  03 41 11 30 00 00 00 00
  can0  0B0   [6]  00 00 00 00 11 08
  can0  0B2   [6]  00 00 00 00 11 08
  can0  2D0   [8]  00 00 09 00 B0 9C 00 2F
  can0  2C4   [8]  00 00 00 1D 40 80 40 EB
  can0  2C5   [4]  00 07 80 52
  can0  440   [8]  42 02 00 00 00 00 00 00
  can0  260   [8]  0E 00 00 00 00 00 00 78
  can0  0B4   [8]  00 00 00 00 00 00 00 BC
  can0  223   [8]  00 00 00 00 00 00 00 2D
  can0  2C6   [8]  00 00 00 00 00 00 00 D0
  can0  2D5   [2]  00 00
  can0  0B0   [6]  00 00 00 00 11 09
  can0  0B2   [6]  00 00 00 00 11 09
  can0  224   [8]  00 00 00 00 00 00 00 00
  can0  262   [5]  00 00 00 00 69
  can0  0B4   [8]  00 00 00 00 00 00 00 BC
  can0  0BA   [4]  06 00 00 C4
  can0  232   [4]  03 03 08 46
  can0  2C1   [8]  08 06 48 08 70 F2 00 8B
  can0  260   [8]  0E 00 00 00 00 00 00 78
  can0  0B0   [6]  00 00 00 00 11 0A
  can0  0B2   [6]  00 00 00 00 11 0A
  can0  3B0   [5]  00 00 00 48 00
  can0  2C4   [8]  00 00 00 1D 40 80 40 EB
  can0  0B4   [8]  00 00 00 00 00 00 00 BC
  can0  223   [8]  00 00 00 00 00 00 00 2D
  can0  2D0   [8]  00 00 09 00 B0 9C 00 2F
  can0  262   [5]  00 00 00 00 69
  can0  4DD   [8]  1E 00 00 05 00 00 00 00
  can0  2D5   [2]  00 00
  can0  0B0   [6]  00 00 00 00 11 0B
  can0  0B2   [6]  00 00 00 00 11 0B
  can0  224   [8]  00 00 00 00 00 00 00 00
  can0  2C6   [8]  00 00 00 00 00 00 00 D0
  can0  0B4   [8]  00 00 00 00 00 00 00 BC
  can0  0BA   [4]  06 00 00 C4
  can0  232   [4]  03 03 08 46
  can0  260   [8]  0E 00 00 00 00 00 00 78
  can0  0B0   [6]  00 00 00 00 11 0C
  can0  0B2   [6]  00 00 00 00 11 0C
  can0  2C4   [8]  00 00 00 1D 40 80 40 EB
  can0  2C5   [4]  00 07 80 52
  can0  262   [5]  00 00 00 00 69
  can0  2C1   [8]  08 06 48 08 70 F2 00 8B
  can0  0B4   [8]  00 00 00 00 00 00 00 BC
  can0  223   [8]  00 00 00 00 00 00 00 2D
  can0  3A0   [8]  00 00 00 00 00 00 00 00
  can0  2D5   [2]  00 00
  can0  0B0   [6]  00 00 00 00 11 0D
  can0  0B2   [6]  00 00 00 00 11 0D
  can0  224   [8]  00 00 00 00 00 00 00 00
  can0  260   [8]  0E 00 00 00 00 00 00 78
  can0  2D0   [8]  00 00 09 00 B0 9C 00 2F
  can0  0B4   [8]  00 00 00 00 00 00 00 BC
  can0  0BA   [4]  06 00 00 C4
  can0  232   [4]  03 03 08 46
  can0  0B0   [6]  00 00 00 00 11 0E
  can0  0B2   [6]  00 00 00 00 11 0E
  can0  2C4   [8]  00 00 00 1D 40 80 40 EB
  can0  2C6   [8]  00 00 00 00 00 00 00 D0
  can0  262   [5]  00 00 00 00 69
  can0  0B4   [8]  00 00 00 00 00 00 00 BC
  can0  223   [8]  00 00 00 00 00 00 00 2D
  can0  2D5   [2]  00 00
  can0  260   [8]  0E 00 00 00 00 00 00 78
  can0  0B0   [6]  00 00 00 00 11 0F
  can0  0B2   [6]  00 00 00 00 11 0F
  can0  224   [8]  00 00 00 00 00 00 00 00
  can0  2C1   [8]  08 06 48 08 70 F2 00 8B
  can0  380   [8]  00 20 00 00 00 00 27 00
  can0  0B4   [8]  00 00 00 00 00 00 00 BC
  can0  0BA   [4]  05 FF 00 C2
  can0  232   [4]  03 03 08 46
  can0  262   [5]  00 00 00 00 69
  can0  0B0   [6]  00 00 00 00 11 00
  can0  0B2   [6]  00 00 00 00 11 00
  can0  2C4   [8]  00 00 00 1D 40 80 40 EB
  can0  2D0   [8]  00 00 09 00 B0 9C 00 2F
  can0  442   [8]  40 02 00 00 02 00 00 00
  can0  2C5   [4]  00 07 80 52
  can0  7DF   [8]  02 01 0E 00 00 00 00 00
  can0  7E8   [8]  03 41 0E 8A 00 00 00 00
  can0  0B4   [8]  00 00 00 00 00 00 00 BC
  can0  223   [8]  00 00 00 00 00 00 00 2D
  can0  260   [8]  0E 00 00 00 00 00 00 78
  can0  2C6   [8]  00 00 00 00 00 00 00 D0
  can0  2D5   [2]  00 00
  can0  0B0   [6]  00 00 00 00 11 01
  can0  0B2   [6]  00 00 00 00 11 01
  can0  224   [8]  00 00 00 00 00 00 00 00
  can0  262   [5]  00 00 00 00 69
  can0  0B4   [8]  00 00 00 00 00 00 00 BC
  can0  0BA   [4]  06 00 00 C4
  can0  232   [4]  03 03 08 46
  can0  3A1   [8]  00 00 00 00 00 00 00 00
  can0  2C1   [8]  08 06 48 08 70 F2 00 8B
  can0  2C4   [8]  00 00 00 1D 40 80 40 EB
  can0  0B0   [6]  00 00 00 00 11 02
  can0  0B2   [6]  00 00 00 00 11 02
  can0  260   [8]  0E 00 00 00 00 00 00 78
  can0  0B4   [8]  00 00 00 00 00 00 00 BC
  can0  223   [8]  00 00 00 00 00 00 00 2D
  can0  2D0   [8]  00 00 09 00 B0 9C 00 2F
  can0  2D5   [2]  00 00
  can0  620   [8]  10 00 00 00 30 40 00 50
  can0  0B0   [6]  00 00 00 00 11 03
  can0  0B2   [6]  00 00 00 00 11 03
  can0  224   [8]  00 00 00 00 00 00 00 00
  can0  262   [5]  00 00 00 00 69
  can0  2C6   [8]  00 00 00 00 00 00 00 D0
  can0  0B4   [8]  00 00 00 00 00 00 00 BC
  can0  0BA   [4]  06 00 00 C4
  can0  232   [4]  03 03 08 46
  can0  260   [8]  0E 00 00 00 00 00 00 78
  can0  2C4   [8]  00 00 00 1D 40 80 40 EB
  can0  0B0   [6]  00 00 00 00 11 04
  can0  0B2   [6]  00 00 00 00 11 04
  can0  2C5   [4]  00 07 80 52
  can0  2C1   [8]  08 06 48 08 70 F2 00 8B
  can0  0B4   [8]  00 00 00 00 00 00 00 BC
  can0  223   [8]  00 00 00 00 00 00 00 2D
  can0  2D5   [2]  00 00
  can0  262   [5]  00 00 00 00 69
  can0  3A0   [8]  00 00 00 00 00 00 00 00
  can0  0B0   [6]  00 00 00 00 11 05
  can0  0B2   [6]  00 00 00 00 11 05
  can0  224   [8]  00 00 00 00 00 00 00 00
  can0  2D0   [8]  00 00 09 00 B0 9C 00 2F
  can0  0B4   [8]  00 00 00 00 00 00 00 BC
  can0  0BA   [4]  06 00 00 C4
  can0  232   [4]  03 03 08 46
  can0  260   [8]  0E 00 00 00 00 00 00 78
  can0  2C4   [8]  00 00 00 1D 40 80 40 EB
  can0  2C6   [8]  00 00 00 00 00 00 00 D0
  can0  0B0   [6]  00 00 00 00 11 06
  can0  0B2   [6]  00 00 00 00 11 06
  can0  262   [5]  00 00 00 00 69
  can0  0B4   [8]  00 00 00 00 00 00 00 BC
  can0  223   [8]  00 00 00 00 00 00 00 2D
  can0  3B7   [8]  00 00 00 00 00 00 00 00
  can0  2D5   [2]  00 00
  can0  2C1   [8]  08 06 48 08 70 F2 00 8B
  can0  0B0   [6]  00 00 00 00 11 07
  can0  0B2   [6]  00 00 00 00 11 07
  can0  224   [8]  00 00 00 00 00 00 00 00
  can0  260   [8]  0E 00 00 00 00 00 00 78
  can0  0B4   [8]  00 00 00 00 00 00 00 BC
  can0  0BA   [4]  05 FF 00 C2
  can0  232   [4]  03 03 08 46
  can0  2C4   [8]  00 00 00 1D 40 80 40 EB
  can0  2D0   [8]  00 00 09 00 B0 9C 00 2F
  can0  0B0   [6]  00 00 00 00 11 08
  can0  0B2   [6]  00 00 00 00 11 08
  can0  262   [5]  00 00 00 00 69
  can0  440   [8]  42 02 00 00 00 00 00 00
  can0  2C5   [4]  00 07 80 52
  can0  0B4   [8]  00 00 00 00 00 00 00 BC
  can0  223   [8]  00 00 00 00 00 00 00 2D
  can0  2D5   [2]  00 00
  can0  2C6   [8]  00 00 00 00 00 00 00 D0
  can0  7DF   [8]  02 01 06 00 00 00 00 00
  can0  7E8   [8]  03 41 06 80 00 00 00 00
  can0  260   [8]  0E 00 00 00 00 00 00 78
  can0  0B0   [6]  00 00 00 00 11 09
  can0  0B2   [6]  00 00 00 00 11 09
  can0  224   [8]  00 00 00 00 00 00 00 00
  can0  0B4   [8]  00 00 00 00 00 00 00 BC
  can0  0BA   [4]  06 00 00 C4
  can0  232   [4]  03 03 08 46
  can0  2C1   [8]  08 06 48 08 70 F2 00 8B
  can0  262   [5]  00 00 00 00 69
  can0  2C4   [8]  00 00 00 1D 40 80 40 EB
  can0  0B0   [6]  00 00 00 00 11 0A
  can0  0B2   [6]  00 00 00 00 11 0A
  can0  4C8   [8]  09 00 01 06 00 00 00 00
  can0  2D5   [2]  00 00
  can0  0B4   [8]  00 00 00 00 00 00 00 BC
  can0  223   [8]  00 00 00 00 00 00 00 2D
  can0  260   [8]  0E 00 00 00 00 00 00 78
  can0  2D0   [8]  00 00 09 00 B0 9C 00 2F
  can0  0B0   [6]  00 00 00 00 11 0B
  can0  0B2   [6]  00 00 00 00 11 0B
  can0  224   [8]  00 00 00 00 00 00 00 00
  can0  2C6   [8]  00 00 00 00 00 00 00 D0
  can0  262   [5]  00 00 00 00 69
  can0  0B4   [8]  00 00 00 00 00 00 00 BC
  can0  0BA   [4]  06 01 00 C5
  can0  232   [4]  03 03 08 46
  can0  2C4   [8]  00 00 00 1D 40 80 40 EB
  can0  0B0   [6]  00 00 00 00 11 0C
  can0  0B2   [6]  00 00 00 00 11 0C
  can0  2C5   [4]  00 07 80 52
  can0  260   [8]  0E 00 00 00 00 00 00 78
  can0  2C1   [8]  08 06 48 08 70 F2 00 8B
  can0  2D5   [2]  00 00
  can0  0B4   [8]  00 00 00 00 00 00 00 BC
  can0  223   [8]  00 00 00 00 00 00 00 2D
  can0  0B0   [6]  00 00 00 00 11 0D
  can0  0B2   [6]  00 00 00 00 11 0D
  can0  224   [8]  00 00 00 00 00 00 00 00
  can0  262   [5]  00 00 00 00 69
  can0  2D0   [8]  00 00 09 00 B0 9C 00 2F
  can0  3A0   [8]  00 00 00 00 00 00 00 00
  can0  0B4   [8]  00 00 00 00 00 00 00 BC
  can0  0BA   [4]  06 00 00 C4
  can0  232   [4]  03 03 08 46
  can0  2C4   [8]  00 00 00 1D 40 80 40 EB
  can0  260   [8]  0E 00 00 00 00 00 00 78
  can0  2C6   [8]  00 00 00 00 00 00 00 D0
  can0  0B0   [6]  00 00 00 00 11 0E
  can0  0B2   [6]  00 00 00 00 11 0E
  can0  3B3   [3]  00 00 28
  can0  610   [8]  20 00 00 64 00 00 00 00
  can0  2D5   [2]  00 00
  can0  0B4   [8]  00 00 00 00 00 00 00 BC
  can0  223   [8]  00 00 00 00 00 00 00 2D
  can0  262   [5]  00 00 00 00 69
  can0  2C1   [8]  08 06 48 08 70 F2 00 8B
  can0  0B0   [6]  00 00 00 00 11 0F
  can0  0B2   [6]  00 00 00 00 11 0F
  can0  224   [8]  00 00 00 00 00 00 00 00
  can0  611   [8]  21 00 00 10 00 03 C1 4F
  can0  260   [8]  0E 00 00 00 00 00 00 78
  can0  0B4   [8]  00 00 00 00 00 00 00 BC
  can0  0BA   [4]  06 00 00 C4
  can0  232   [4]  03 03 08 46
  can0  2C4   [8]  00 00 00 1D 40 80 40 EB
  can0  2D0   [8]  00 00 09 00 B0 9C 00 2F
  can0  442   [8]  40 02 00 00 02 00 00 00
  can0  394   [1]  00
  can0  0B0   [6]  00 00 00 00 11 00
  can0  0B2   [6]  00 00 00 00 11 00
  can0  2C5   [4]  00 07 80 52
  can0  640   [8]  A8 00 00 00 01 89 00 00
  can0  2D5   [2]  00 00
  can0  262   [5]  00 00 00 00 69
  can0  2C6   [8]  00 00 00 00 00 00 00 D0
  can0  0B4   [8]  00 00 00 00 00 00 00 BC
  can0  223   [8]  00 00 00 00 00 00 00 2D
  can0  0B0   [6]  00 00 00 00 11 01
  can0  0B2   [6]  00 00 00 00 11 01
  can0  224   [8]  00 00 00 00 00 00 00 00
  can0  260   [8]  0E 00 00 00 00 00 00 78
  can0  7DF   [8]  02 01 07 00 00 00 00 00
  can0  7E8   [8]  03 41 07 8E 00 00 00 00
  can0  0B4   [8]  00 00 00 00 00 00 00 BC
  can0  0BA   [4]  06 00 00 C4
  can0  232   [4]  03 03 08 46
  can0  2C1   [8]  08 06 48 08 70 F2 00 8B
  can0  2C4   [8]  00 00 00 1D 40 80 40 EB
  can0  262   [5]  00 00 00 00 69
  can0  0B0   [6]  00 00 00 00 11 02
  can0  0B2   [6]  00 00 00 00 11 02
  can0  2D5   [2]  00 00
  can0  2D0   [8]  00 00 09 00 B0 9C 00 2F
  can0  0B4   [8]  00 00 00 00 00 00 00 BC
  can0  223   [8]  00 00 00 00 00 00 00 2D
  can0  260   [8]  0E 00 00 00 00 00 00 78
  can0  0B0   [6]  00 00 00 00 11 03
  can0  0B2   [6]  00 00 00 00 11 03
  can0  224   [8]  00 00 00 00 00 00 00 00
  can0  2C6   [8]  00 00 00 00 00 00 00 D0
  can0  0B4   [8]  00 00 00 00 00 00 00 BC
  can0  0BA   [4]  06 00 00 C4
  can0  232   [4]  03 03 08 46
  can0  2C4   [8]  00 00 00 1D 40 80 40 EB
  can0  262   [5]  00 00 00 00 69
  can0  0B0   [6]  00 00 00 00 11 04
  can0  0B2   [6]  00 00 00 00 11 04
  can0  2C1   [8]  08 06 48 08 70 F2 00 8B
  can0  2C5   [4]  00 07 80 52
  can0  2D5   [2]  00 00
  can0  260   [8]  0E 00 00 00 00 00 00 78
  can0  0B4   [8]  00 00 00 00 00 00 00 BC
  can0  223   [8]  00 00 00 00 00 00 00 2D
  can0  0B0   [6]  00 00 00 00 11 05
  can0  0B2   [6]  00 00 00 00 11 05
  can0  224   [8]  00 00 00 00 00 00 00 00
  can0  2D0   [8]  00 00 09 00 B0 9C 00 2F
  can0  262   [5]  00 00 00 00 69
  can0  2C4   [8]  00 00 00 1D 40 80 40 EB
  can0  0B4   [8]  00 00 00 00 00 00 00 BC
  can0  0BA   [4]  06 00 00 C4
  can0  232   [4]  03 03 08 46
  can0  3A0   [8]  00 00 00 00 00 00 00 00
  can0  2C6   [8]  00 00 00 00 00 00 00 D0
  can0  0B0   [6]  00 00 00 00 11 06
  can0  0B2   [6]  00 00 00 00 11 06
  can0  260   [8]  0E 00 00 00 00 00 00 78
  can0  2D5   [2]  00 00
  can0  0B4   [8]  00 00 00 00 00 00 00 BC
  can0  223   [8]  00 00 00 00 00 00 00 2D
  can0  2C1   [8]  08 06 48 08 70 F2 00 8B
  can0  262   [5]  00 00 00 00 69
  can0  0B0   [6]  00 00 00 00 11 07
  can0  0B2   [6]  00 00 00 00 11 07
  can0  224   [8]  00 00 00 00 00 00 00 00
  can0  4C3   [8]  04 00 12 07 00 00 00 00
  can0  2C4   [8]  00 00 00 1D 40 80 40 EB
  can0  0B4   [8]  00 00 00 00 00 00 00 BC
  can0  0BA   [4]  06 00 00 C4
  can0  232   [4]  03 03 08 46
  can0  2D0   [8]  00 00 09 00 B0 9C 00 2F
  can0  260   [8]  0E 00 00 00 00 00 00 78
  can0  440   [8]  42 02 00 00 00 00 00 00
  can0  0B0   [6]  00 00 00 00 11 08
  can0  0B2   [6]  00 00 00 00 11 08
  can0  2C5   [4]  00 07 80 52
  can0  2D5   [2]  00 00
  can0  2C6   [8]  00 00 00 00 00 00 00 D0
  can0  0B4   [8]  00 00 00 00 00 00 00 BC
  can0  223   [8]  00 00 00 00 00 00 00 2D
  can0  262   [5]  00 00 00 00 69
  can0  0B0   [6]  00 00 00 00 11 09
  can0  0B2   [6]  00 00 00 00 11 09
  can0  224   [8]  00 00 00 00 00 00 00 00
  can0  2C1   [8]  08 06 48 08 70 F2 00 8B
  can0  2C4   [8]  00 00 00 1D 40 80 40 EB
  can0  260   [8]  0E 00 00 00 00 00 00 78
  can0  0B4   [8]  00 00 00 00 00 00 00 BC
  can0  0BA   [4]  06 00 00 C4
  can0  232   [4]  03 03 08 46
  can0  7DF   [8]  02 01 15 00 00 00 00 00
  can0  7E8   [8]  04 41 15 00 FF 00 00 00
  can0  0B0   [6]  00 00 00 00 11 0A
  can0  0B2   [6]  00 00 00 00 11 0A
  can0  2D5   [2]  00 00
  can0  262   [5]  00 00 00 00 69
  can0  2D0   [8]  00 00 09 00 B0 9C 00 2F
  can0  0B4   [8]  00 00 00 00 00 00 00 BC
  can0  223   [8]  00 00 00 00 00 00 00 2D
  can0  2C6   [8]  00 00 00 00 00 00 00 D0
  can0  0B0   [6]  00 00 00 00 11 0B
  can0  0B2   [6]  00 00 00 00 11 0B
  can0  224   [8]  00 00 00 00 00 00 00 00
  can0  260   [8]  0E 00 00 00 00 00 00 78
  can0  621   [8]  11 00 00 00 00 00 00 00
  can0  2C4   [8]  00 00 00 1D 40 80 40 EB
  can0  0B4   [8]  00 00 00 00 00 00 00 BC
  can0  0BA   [4]  06 00 00 C4
  can0  232   [4]  03 03 08 46
  can0  262   [5]  00 00 00 00 69
  can0  620   [8]  10 00 00 00 30 40 00 50
  can0  0B0   [6]  00 00 00 00 11 0C
  can0  0B2   [6]  00 00 00 00 11 0C
  can0  2C1   [8]  08 06 48 08 70 F2 00 8B
  can0  2D5   [2]  00 00
  can0  2C5   [4]  00 07 80 52
  can0  0B4   [8]  00 00 00 00 00 00 00 BC
  can0  223   [8]  00 00 00 00 00 00 00 2D
  can0  622   [8]  12 00 00 00 00 00 00 00
  can0  260   [8]  0E 00 00 00 00 00 00 78
  can0  2D0   [8]  00 00 09 00 B0 9C 00 2F
  can0  0B0   [6]  00 00 00 00 11 0D
  can0  0B2   [6]  00 00 00 00 11 0D
  can0  224   [8]  00 00 00 00 00 00 00 00
  can0  2C4   [8]  00 00 00 1D 40 80 40 EB
  can0  624   [8]  1A 00 00 49 49 00 00 00
  can0  0B4   [8]  00 00 00 00 00 00 00 BC
  can0  0BA   [4]  06 00 00 C4
  can0  232   [4]  03 03 08 46
  can0  262   [5]  00 00 00 00 69
  can0  2C6   [8]  00 00 00 00 00 00 00 D0
  can0  3A0   [8]  00 00 00 00 00 00 00 00
  can0  2D5   [2]  00 00
  can0  0B0   [6]  00 00 00 00 11 0E
  can0  0B2   [6]  00 00 00 00 11 0E
  can0  630   [8]  17 00 00 00 00 00 00 00
  can0  260   [8]  0E 00 00 00 00 00 00 78
  can0  0B4   [8]  00 00 00 00 00 00 00 BC
  can0  223   [8]  00 00 00 00 00 00 00 2D
  can0  2C1   [8]  08 06 48 08 70 F2 00 8B
  can0  638   [8]  13 00 10 00 00 00 00 00
  can0  0B0   [6]  00 00 00 00 11 0F
  can0  0B2   [6]  00 00 00 00 11 0F
  can0  224   [8]  00 00 00 00 00 00 00 00
  can0  262   [5]  00 00 00 00 69
  can0  2C4   [8]  00 00 00 1D 40 80 40 EB
  can0  0B4   [8]  00 00 00 00 00 00 00 BC
  can0  0BA   [4]  05 FF 00 C2
  can0  232   [4]  03 03 08 46
  can0  3B7   [8]  00 00 00 00 00 00 00 00
  can0  2D0   [8]  00 00 09 00 B0 9C 00 2F
  can0  442   [8]  40 02 00 00 02 00 00 00
  can0  2D5   [2]  00 00
  can0  0B0   [6]  00 00 00 00 11 00
  can0  0B2   [6]  00 00 00 00 11 00
  can0  260   [8]  0E 00 00 00 00 00 00 78
  can0  2C5   [4]  00 07 80 52
  can0  2C6   [8]  00 00 00 00 00 00 00 D0
  can0  0B4   [8]  00 00 00 00 00 00 00 BC
  can0  223   [8]  00 00 00 00 00 00 00 2D
  can0  262   [5]  00 00 00 00 69
  can0  0B0   [6]  00 00 00 00 11 01
  can0  0B2   [6]  00 00 00 00 11 01
  can0  224   [8]  00 00 00 00 00 00 00 00
  can0  2C4   [8]  00 00 00 1D 40 80 40 EB
  can0  2C1   [8]  08 06 48 08 70 F2 00 8B
  can0  0B4   [8]  00 00 00 00 00 00 00 BC
  can0  0BA   [4]  06 00 00 C4
  can0  232   [4]  03 03 08 46
  can0  260   [8]  0E 00 00 00 00 00 00 78
  can0  2D5   [2]  00 00
  can0  3B4   [8]  00 00 32 4C 80 00 00 00
  can0  0B0   [6]  00 00 00 00 11 02
  can0  0B2   [6]  00 00 00 00 11 02
  can0  7DF   [8]  02 01 1F 00 00 00 00 00
  can0  2D0   [8]  00 00 09 00 B0 9C 00 2F
  can0  7E8   [8]  04 41 1F 00 00 00 00 00
  can0  0B4   [8]  00 00 00 00 00 00 00 BC
  can0  223   [8]  00 00 00 00 00 00 00 2D
  can0  262   [5]  00 00 00 00 69
  can0  2C6   [8]  00 00 00 00 00 00 00 D0
  can0  0B0   [6]  00 00 00 00 11 03
  can0  0B2   [6]  00 00 00 00 11 03
  can0  224   [8]  00 00 00 00 00 00 00 00
  can0  2C4   [8]  00 00 00 1D 40 80 40 EB
  can0  260   [8]  0E 00 00 00 00 00 00 78
  can0  0B4   [8]  00 00 00 00 00 00 00 BC
  can0  0BA   [4]  06 00 00 C4
  can0  232   [4]  03 03 08 46
  can0  2D5   [2]  00 00
  can0  2C1   [8]  08 06 48 08 70 F2 00 8B
  can0  0B0   [6]  00 00 00 00 11 04
  can0  0B2   [6]  00 00 00 00 11 04
  can0  2C5   [4]  00 07 80 52
  can0  262   [5]  00 00 00 00 69
  can0  0B4   [8]  00 00 00 00 00 00 00 BC
  can0  223   [8]  00 00 00 00 00 00 00 2D
  can0  2D0   [8]  00 00 09 00 B0 9C 00 2F
  can0  260   [8]  0E 00 00 00 00 00 00 78
  can0  0B0   [6]  00 00 00 00 11 05
  can0  0B2   [6]  00 00 00 00 11 05
  can0  224   [8]  00 00 00 00 00 00 00 00
  can0  2C4   [8]  00 00 00 1D 40 80 40 EB
  can0  0B4   [8]  00 00 00 00 00 00 00 BC
  can0  0BA   [4]  06 00 00 C4
  can0  232   [4]  03 03 08 46
  can0  2C6   [8]  00 00 00 00 00 00 00 D0
  can0  2D5   [2]  00 00
  can0  262   [5]  00 00 00 00 69
  can0  0B0   [6]  00 00 00 00 11 06
  can0  0B2   [6]  00 00 00 00 11 06
  can0  3A0   [8]  00 00 00 00 00 00 00 00
  can0  0B4   [8]  00 00 00 00 00 00 00 BC
  can0  223   [8]  00 00 00 00 00 00 00 2D
  can0  2C1   [8]  08 06 48 08 70 F2 00 8B
  can0  260   [8]  0E 00 00 00 00 00 00 78
  can0  0B0   [6]  00 00 00 00 11 07
  can0  0B2   [6]  00 00 00 00 11 07
  can0  224   [8]  00 00 00 00 00 00 00 00
  can0  2C4   [8]  00 00 00 1D 40 80 40 EB
  can0  2D0   [8]  00 00 09 00 B0 9C 00 2F
  can0  262   [5]  00 00 00 00 69
  can0  0B4   [8]  00 00 00 00 00 00 00 BC
  can0  0BA   [4]  05 FF 00 C2
  can0  232   [4]  03 03 08 46
  can0  440   [8]  42 02 00 00 00 00 00 00
  can0  2D5   [2]  00 00
  can0  0B0   [6]  00 00 00 00 11 08
  can0  0B2   [6]  00 00 00 00 11 08
  can0  2C5   [4]  00 07 80 52
  can0  2C6   [8]  00 00 00 00 00 00 00 D0
  can0  260   [8]  0E 00 00 00 00 00 00 78
  can0  0B4   [8]  00 00 00 00 00 00 00 BC
  can0  223   [8]  00 00 00 00 00 00 00 2D
  can0  394   [1]  00
  can0  2C4   [8]  00 00 00 1D 40 80 40 EB
  can0  0B0   [6]  00 00 00 00 11 09
  can0  0B2   [6]  00 00 00 00 11 09
  can0  224   [8]  00 00 00 00 00 00 00 00
  can0  262   [5]  00 00 00 00 69
  can0  2C1   [8]  08 06 48 08 70 F2 00 8B
  can0  4C1   [8]  01 00 09 08 00 00 00 00
  can0  0B4   [8]  00 00 00 00 00 00 00 BC
  can0  0BA   [4]  06 00 00 C4
  can0  232   [4]  03 03 08 46
  can0  2D5   [2]  00 00
  can0  260   [8]  0E 00 00 00 00 00 00 78
  can0  0B0   [6]  00 00 00 00 11 0A
  can0  0B2   [6]  00 00 00 00 11 0A
  can0  2D0   [8]  00 00 09 00 B0 9C 00 2F
  can0  0B4   [8]  00 00 00 00 00 00 00 BC
  can0  223   [8]  00 00 00 00 00 00 00 2D
  can0  7DF   [8]  02 01 2F 00 00 00 00 00
  can0  2C6   [8]  00 00 00 00 00 00 00 D0
  can0  262   [5]  00 00 00 00 69
  can0  2C4   [8]  00 00 00 1D 40 80 40 EB
  can0  0B0   [6]  00 00 00 00 11 0B
  can0  0B2   [6]  00 00 00 00 11 0B
  can0  224   [8]  00 00 00 00 00 00 00 00
  can0  0B4   [8]  00 00 00 00 00 00 00 BC
  can0  0BA   [4]  06 00 00 C4
  can0  232   [4]  03 03 08 46
  can0  260   [8]  0E 00 00 00 00 00 00 78
  can0  2D5   [2]  00 00
  can0  2C1   [8]  08 06 48 08 70 F2 00 8B
  can0  0B0   [6]  00 00 00 00 11 0C
  can0  0B2   [6]  00 00 00 00 11 0C
  can0  2C5   [4]  00 07 80 52
  can0  262   [5]  00 00 00 00 69
  can0  0B4   [8]  00 00 00 00 00 00 00 BC
  can0  223   [8]  00 00 00 00 00 00 00 2D
  can0  2D0   [8]  00 00 09 00 B0 9C 00 2F
  can0  2C4   [8]  00 00 00 1D 40 80 40 EB
  can0  0B0   [6]  00 00 00 00 11 0D
  can0  0B2   [6]  00 00 00 00 11 0D
  can0  224   [8]  00 00 00 00 00 00 00 00
  can0  260   [8]  0E 00 00 00 00 00 00 78
  can0  2C6   [8]  00 00 00 00 00 00 00 D0
  can0  0B4   [8]  00 00 00 00 00 00 00 BC
  can0  0BA   [4]  06 00 00 C4
  can0  232   [4]  03 03 08 46
  can0  2D5   [2]  00 00
  can0  0B0   [6]  00 00 00 00 11 0E
  can0  0B2   [6]  00 00 00 00 11 0E
  can0  262   [5]  00 00 00 00 69
  can0  3A0   [8]  00 00 00 00 00 00 00 00
  can0  2C1   [8]  08 06 48 08 70 F2 00 8B
  can0  0B4   [8]  00 00 00 00 00 00 00 BC
  can0  223   [8]  00 00 00 00 00 00 00 2D
  can0  2C4   [8]  00 00 00 1D 40 80 40 EB
  can0  260   [8]  0E 00 00 00 00 00 00 78
  can0  0B0   [6]  00 00 00 00 11 0F
  can0  0B2   [6]  00 00 00 00 11 0F
  can0  224   [8]  00 00 00 00 00 00 00 00
  can0  442   [8]  40 02 00 00 02 00 00 00
  can0  2D0   [8]  00 00 09 00 B0 9C 00 2F
  can0  3B1   [8]  00 00 02 2A A0 00 00 00
  can0  0B4   [8]  00 00 00 00 00 00 00 BC
  can0  0BA   [4]  06 00 00 C4
  can0  232   [4]  03 03 08 46
  can0  2D5   [2]  00 00
  can0  262   [5]  00 00 00 00 69
  can0  0B0   [6]  00 00 00 00 11 00
  can0  0B2   [6]  00 00 00 00 11 00
  can0  2C5   [4]  00 07 80 52
  can0  2C6   [8]  00 00 00 00 00 00 00 D0
  can0  0B4   [8]  00 00 00 00 00 00 00 BC
  can0  223   [8]  00 00 00 00 00 00 00 2D
  can0  260   [8]  0E 00 00 00 00 00 00 78
  can0  2C4   [8]  00 00 00 1D 40 80 40 EB
  can0  0B0   [6]  00 00 00 00 11 01
  can0  0B2   [6]  00 00 00 00 11 01
  can0  224   [8]  00 00 00 00 00 00 00 00
  can0  2C1   [8]  08 06 48 08 70 F2 00 8B
  can0  262   [5]  00 00 00 00 69
  can0  2D5   [2]  00 00
  can0  0B4   [8]  00 00 00 00 00 00 00 BC
  can0  0BA   [4]  06 00 00 C4
  can0  232   [4]  03 03 08 46
  can0  2D0   [8]  00 00 09 00 B0 9C 00 2F
  can0  0B0   [6]  00 00 00 00 11 02
  can0  0B2   [6]  00 00 00 00 11 02
  can0  260   [8]  0E 00 00 00 00 00 00 78
  can0  0B4   [8]  00 00 00 00 00 00 00 BC
  can0  223   [8]  00 00 00 00 00 00 00 2D
  can0  2C6   [8]  00 00 00 00 00 00 00 D0
  can0  2C4   [8]  00 00 00 1D 40 80 40 EB
  can0  0B0   [6]  00 00 00 00 11 03
  can0  0B2   [6]  00 00 00 00 11 03
  can0  224   [8]  00 00 00 00 00 00 00 00
  can0  262   [5]  00 00 00 00 69
  can0  2D5   [2]  00 00
  can0  0B4   [8]  00 00 00 00 00 00 00 BC
  can0  0BA   [4]  06 00 00 C4
  can0  232   [4]  03 03 08 46
  can0  2C1   [8]  08 06 48 08 70 F2 00 8B
  can0  260   [8]  0E 00 00 00 00 00 00 78
  can0  0B0   [6]  00 00 00 00 11 04
  can0  0B2   [6]  00 00 00 00 11 04
  can0  2C5   [4]  00 07 80 52
  can0  620   [8]  10 00 00 00 30 40 00 50
  can0  0B4   [8]  00 00 00 00 00 00 00 BC
  can0  223   [8]  00 00 00 00 00 00 00 2D
  can0  2D0   [8]  00 00 09 00 B0 9C 00 2F
  can0  2C4   [8]  00 00 00 1D 40 80 40 EB
  can0  262   [5]  00 00 00 00 69
  can0  0B0   [6]  00 00 00 00 11 05
  can0  0B2   [6]  00 00 00 00 11 05
  can0  224   [8]  00 00 00 00 00 00 00 00
  can0  2C6   [8]  00 00 00 00 00 00 00 D0
  can0  2D5   [2]  00 00
  can0  0B4   [8]  00 00 00 00 00 00 00 BC
  can0  0BA   [4]  06 00 00 C4
  can0  232   [4]  03 03 08 46
  can0  260   [8]  0E 00 00 00 00 00 00 78
  can0  0B0   [6]  00 00 00 00 11 06
  can0  0B2   [6]  00 00 00 00 11 06
  can0  2C1   [8]  08 06 48 08 70 F2 00 8B
  can0  262   [5]  00 00 00 00 69
  can0  0B4   [8]  00 00 00 00 00 00 00 BC
  can0  223   [8]  00 00 00 00 00 00 00 2D
  can0  3A0   [8]  00 00 00 00 00 00 00 00
  can0  2C4   [8]  00 00 00 1D 40 80 40 EB
  can0  0B0   [6]  00 00 00 00 11 07
  can0  0B2   [6]  00 00 00 00 11 07
  can0  224   [8]  00 00 00 00 00 00 00 00
  can0  260   [8]  0E 00 00 00 00 00 00 78
  can0  2D0   [8]  00 00 09 00 B0 9C 00 2F
  can0  2D5   [2]  00 00
  can0  440   [8]  42 02 00 00 00 00 00 00
  can0  0B4   [8]  00 00 00 00 00 00 00 BC
  can0  0BA   [4]  06 00 00 C4
  can0  232   [4]  03 03 08 46
  can0  610   [8]  20 00 00 64 00 00 00 00
  can0  2C6   [8]  00 00 00 00 00 00 00 D0
  can0  2C5   [4]  00 07 80 52
  can0  0B0   [6]  00 00 00 00 11 08
  can0  0B2   [6]  00 00 00 00 11 08
  can0  262   [5]  00 00 00 00 69
  can0  0B4   [8]  00 00 00 00 00 00 00 BC
  can0  223   [8]  00 00 00 00 00 00 00 2D
  can0  3B7   [8]  00 00 00 00 00 00 00 00
  can0  2C4   [8]  00 00 00 1D 40 80 40 EB
  can0  3B3   [3]  00 00 28
  can0  260   [8]  0E 00 00 00 00 00 00 78
  can0  2C1   [8]  08 06 48 08 70 F2 00 8B
  can0  0B0   [6]  00 00 00 00 11 09
  can0  0B2   [6]  00 00 00 00 11 09
  can0  224   [8]  00 00 00 00 00 00 00 00
  can0  2D5   [2]  00 00
  can0  0B4   [8]  00 00 00 00 00 00 00 BC
  can0  0BA   [4]  05 FF 00 C2
  can0  232   [4]  03 03 08 46
  can0  262   [5]  00 00 00 00 69
  can0  2D0   [8]  00 00 09 00 B0 9C 00 2F
  can0  0B0   [6]  00 00 00 00 11 0A
  can0  0B2   [6]  00 00 00 00 11 0A
  can0  260   [8]  0E 00 00 00 00 00 00 78
  can0  0B4   [8]  00 00 00 00 00 00 00 BC
  can0  223   [8]  00 00 00 00 00 00 00 2D
  can0  2C4   [8]  00 00 00 1D 40 80 40 EB
  can0  2C6   [8]  00 00 00 00 00 00 00 D0
  can0  0B0   [6]  00 00 00 00 11 0B
  can0  0B2   [6]  00 00 00 00 11 0B
  can0  224   [8]  00 00 00 00 00 00 00 00
  can0  2D5   [2]  00 00
  can0  262   [5]  00 00 00 00 69
  can0  0B4   [8]  00 00 00 00 00 00 00 BC
  can0  0BA   [4]  06 00 00 C4
  can0  232   [4]  03 03 08 46
  can0  2C1   [8]  08 06 48 08 70 F2 00 8B
  can0  2C5   [4]  00 07 80 52
  can0  0B0   [6]  00 00 00 00 11 0C
  can0  0B2   [6]  00 00 00 00 11 0C
  can0  260   [8]  0E 00 00 00 00 00 00 78
  can0  2C4   [8]  00 00 00 1D 40 80 40 EB
  can0  0B4   [8]  00 00 00 00 00 00 00 BC
  can0  223   [8]  00 00 00 00 00 00 00 2D
  can0  2D0   [8]  00 00 09 00 B0 9C 00 2F
  can0  262   [5]  00 00 00 00 69
  can0  0B0   [6]  00 00 00 00 11 0D
  can0  0B2   [6]  00 00 00 00 11 0D
  can0  224   [8]  00 00 00 00 00 00 00 00
  can0  2C6   [8]  00 00 00 00 00 00 00 D0
  can0  2D5   [2]  00 00
  can0  0B4   [8]  00 00 00 00 00 00 00 BC
  can0  0BA   [4]  06 00 00 C4
  can0  232   [4]  03 03 08 46
  can0  260   [8]  0E 00 00 00 00 00 00 78
  can0  0B0   [6]  00 00 00 00 11 0E
  can0  0B2   [6]  00 00 00 00 11 0E
  can0  2C1   [8]  08 06 48 08 70 F2 00 8B
  can0  2C4   [8]  00 00 00 1D 40 80 40 EB
  can0  0B4   [8]  00 00 00 00 00 00 00 BC
  can0  223   [8]  00 00 00 00 00 00 00 2D
  can0  262   [5]  00 00 00 00 69
  can0  3A0   [8]  00 00 00 00 00 00 00 00
  can0  0B0   [6]  00 00 00 00 11 0F
  can0  0B2   [6]  00 00 00 00 11 0F
  can0  224   [8]  00 00 00 00 00 00 00 00
  can0  442   [8]  40 02 00 00 02 00 00 00
  can0  2D0   [8]  00 00 09 00 B0 9C 00 2F
  can0  2D5   [2]  00 00
  can0  260   [8]  0E 00 00 00 00 00 00 78
  can0  0B4   [8]  00 00 00 00 00 00 00 BC
  can0  0BA   [4]  06 00 00 C4
  can0  232   [4]  03 03 08 46
  can0  2C6   [8]  00 00 00 00 00 00 00 D0
  can0  2C5   [4]  00 07 80 52
  can0  0B0   [6]  00 00 00 00 11 00
  can0  0B2   [6]  00 00 00 00 11 00
  can0  262   [5]  00 00 00 00 69
  can0  2C4   [8]  00 00 00 1D 40 80 40 EB
  can0  0B4   [8]  00 00 00 00 00 00 00 BC
  can0  223   [8]  00 00 00 00 00 00 00 2D
  can0  2C1   [8]  08 06 48 08 70 F2 00 8B
  can0  0B0   [6]  00 00 00 00 11 01
  can0  0B2   [6]  00 00 00 00 11 01
  can0  224   [8]  00 00 00 00 00 00 00 00
  can0  2D5   [2]  00 00
  can0  260   [8]  0E 00 00 00 00 00 00 78
  can0  0B4   [8]  00 00 00 00 00 00 00 BC
  can0  0BA   [4]  06 00 00 C4
  can0  232   [4]  03 03 08 46
  can0  394   [1]  00
  can0  2D0   [8]  00 00 09 00 B0 9C 00 2F
  can0  262   [5]  00 00 00 00 69
  can0  0B0   [6]  00 00 00 00 11 02
  can0  0B2   [6]  00 00 00 00 11 02
  can0  2C4   [8]  00 00 00 1D 40 80 40 EB
  can0  2C6   [8]  00 00 00 00 00 00 00 D0
  can0  0B4   [8]  00 00 00 00 00 00 00 BC
  can0  223   [8]  00 00 00 00 00 00 00 2D
  can0  260   [8]  0E 00 00 00 00 00 00 78
  can0  0B0   [6]  00 00 00 00 11 03
  can0  0B2   [6]  00 00 00 00 11 03
  can0  224   [8]  00 00 00 00 00 00 00 00
  can0  2D5   [2]  00 00
  can0  38A   [5]  0C 04 00 00 00
  can0  2C1   [8]  08 06 48 08 70 F2 00 8B
  can0  0B4   [8]  00 00 00 00 00 00 00 BC
  can0  0BA   [4]  06 00 00 C4
  can0  232   [4]  03 03 08 46
  can0  262   [5]  00 00 00 00 69
  can0  2C5   [4]  00 07 80 52
  can0  0B0   [6]  00 00 00 00 11 04
  can0  0B2   [6]  00 00 00 00 11 04
  can0  2C4   [8]  00 00 00 1D 40 80 40 EB
  can0  2D0   [8]  00 00 09 00 B0 9C 00 2F
  can0  260   [8]  0E 00 00 00 00 00 00 78
  can0  0B4   [8]  00 00 00 00 00 00 00 BC
  can0  223   [8]  00 00 00 00 00 00 00 2D
  can0  2D5   [2]  00 00
  can0  0B0   [6]  00 00 00 00 11 05
  can0  0B2   [6]  00 00 00 00 11 05
  can0  224   [8]  00 00 00 00 00 00 00 00
  can0  2C6   [8]  00 00 00 00 00 00 00 D0
  can0  262   [5]  00 00 00 00 69
  can0  0B4   [8]  00 00 00 00 00 00 00 BC
  can0  0BA   [4]  06 00 00 C4
  can0  232   [4]  03 03 08 46
  can0  0B0   [6]  00 00 00 00 11 06
  can0  0B2   [6]  00 00 00 00 11 06
  can0  2C1   [8]  08 06 48 08 70 F2 00 8B
  can0  260   [8]  0E 00 00 00 00 00 00 78
  can0  2C4   [8]  00 00 00 1D 40 80 40 EB
  can0  0B4   [8]  00 00 00 00 00 00 00 BC
  can0  223   [8]  00 00 00 00 00 00 00 2D
  can0  262   [5]  00 00 00 00 69
  can0  2D5   [2]  00 00
  can0  0B0   [6]  00 00 00 00 11 07
  can0  0B2   [6]  00 00 00 00 11 07
  can0  224   [8]  00 00 00 00 00 00 00 00
  can0  2D0   [8]  00 00 09 00 B0 9C 00 2F
  can0  440   [8]  42 02 00 00 00 00 00 00
  can0  3A0   [8]  00 00 00 00 00 00 00 00
  can0  0B4   [8]  00 00 00 00 00 00 00 BC
  can0  0BA   [4]  06 00 00 C4
  can0  232   [4]  03 03 08 46
  can0  2C6   [8]  00 00 00 00 00 00 00 D0
  can0  260   [8]  0E 00 00 00 00 00 00 78
  can0  7DF   [8]  02 01 0C 00 00 00 00 00
  can0  2C5   [4]  00 07 80 52
  can0  7E8   [8]  04 41 0C 00 00 00 00 00
  can0  0B0   [6]  00 00 00 00 11 08
  can0  0B2   [6]  00 00 00 00 11 08
  can0  2C4   [8]  00 00 00 1D 40 80 40 EB
  can0  0B4   [8]  00 00 00 00 00 00 00 BC
  can0  223   [8]  00 00 00 00 00 00 00 2D
  can0  262   [5]  00 00 00 00 69
  can0  2C1   [8]  08 06 48 08 70 F2 00 8B
  can0  2D5   [2]  00 00
  can0  0B0   [6]  00 00 00 00 11 09
  can0  0B2   [6]  00 00 00 00 11 09
  can0  224   [8]  00 00 00 00 00 00 00 00
  can0  260   [8]  0E 00 00 00 00 00 00 78
  can0  0B4   [8]  00 00 00 00 00 00 00 BC
  can0  0BA   [4]  05 FF 00 C2
  can0  232   [4]  03 03 08 46
  can0  2D0   [8]  00 00 09 00 B0 9C 00 2F
  can0  4DC   [8]  1D 00 01 07 00 00 00 00
  can0  0B0   [6]  00 00 00 00 11 0A
  can0  0B2   [6]  00 00 00 00 11 0A
  can0  2C4   [8]  00 00 00 1D 40 80 40 EB
  can0  262   [5]  00 00 00 00 69
  can0  2C6   [8]  00 00 00 00 00 00 00 D0
  can0  0B4   [8]  00 00 00 00 00 00 00 BC
  can0  223   [8]  00 00 00 00 00 00 00 2D
  can0  2D5   [2]  00 00
  can0  0B0   [6]  00 00 00 00 11 0B
  can0  0B2   [6]  00 00 00 00 11 0B
  can0  224   [8]  00 00 00 00 00 00 00 00
  can0  260   [8]  0E 00 00 00 00 00 00 78
  can0  2C1   [8]  08 06 48 08 70 F2 00 8B
  can0  0B4   [8]  00 00 00 00 00 00 00 BC
  can0  0BA   [4]  06 00 00 C4
  can0  232   [4]  03 03 08 46
  can0  262   [5]  00 00 00 00 69
  can0  2C5   [4]  00 07 80 52
  can0  0B0   [6]  00 00 00 00 11 0C
  can0  0B2   [6]  00 00 00 00 11 0C
  can0  2C4   [8]  00 00 00 1D 40 80 40 EB
  can0  2D0   [8]  00 00 09 00 B0 9C 00 2F
  can0  0B4   [8]  00 00 00 00 00 00 00 BC
  can0  223   [8]  00 00 00 00 00 00 00 2D
  can0  260   [8]  0E 00 00 00 00 00 00 78
  can0  2D5   [2]  00 00
  can0  2C6   [8]  00 00 00 00 00 00 00 D0
  can0  3B0   [5]  00 00 00 48 00
  can0  0B0   [6]  00 00 00 00 11 0D
  can0  0B2   [6]  00 00 00 00 11 0D
  can0  224   [8]  00 00 00 00 00 00 00 00
  can0  620   [8]  10 00 00 00 30 40 00 50
  can0  0B4   [8]  00 00 00 00 00 00 00 BC
  can0  0BA   [4]  06 00 00 C4
  can0  232   [4]  03 03 08 46
  can0  262   [5]  00 00 00 00 69
  can0  2C1   [8]  08 06 48 08 70 F2 00 8B
  can0  0B0   [6]  00 00 00 00 11 0E
  can0  0B2   [6]  00 00 00 00 11 0E
  can0  2C4   [8]  00 00 00 1D 40 80 40 EB
  can0  260   [8]  0E 00 00 00 00 00 00 78
  can0  4DD   [8]  1E 00 00 05 00 00 00 00
  can0  0B4   [8]  00 00 00 00 00 00 00 BC
  can0  223   [8]  00 00 00 00 00 00 00 2D
  can0  2D5   [2]  00 00
  can0  442   [8]  40 02 00 00 02 00 00 00
  can0  2D0   [8]  00 00 09 00 B0 9C 00 2F
  can0  0B0   [6]  00 00 00 00 11 0F
  can0  0B2   [6]  00 00 00 00 11 0F
  can0  224   [8]  00 00 00 00 00 00 00 00
  can0  262   [5]  00 00 00 00 69
  can0  3A0   [8]  00 00 00 00 00 00 00 00
  can0  0B4   [8]  00 00 00 00 00 00 00 BC
  can0  0BA   [4]  06 00 00 C4
  can0  232   [4]  03 03 08 46
  can0  2C6   [8]  00 00 00 00 00 00 00 D0
  can0  2C5   [4]  00 07 80 52
  can0  0B0   [6]  00 00 00 00 11 00
  can0  0B2   [6]  00 00 00 00 11 00
  can0  260   [8]  0E 00 00 00 00 00 00 78
  can0  2C4   [8]  00 00 00 1D 40 80 40 EB
  can0  7DF   [8]  02 01 0D 00 00 00 00 00
  can0  7E8   [8]  03 41 0D 00 00 00 00 00
  can0  0B4   [8]  00 00 00 00 00 00 00 BC
  can0  223   [8]  00 00 00 00 00 00 00 2D
  can0  2C1   [8]  08 06 48 08 70 F2 00 8B
  can0  2D5   [2]  00 00
  can0  262   [5]  00 00 00 00 69
  can0  0B0   [6]  00 00 00 00 11 01
  can0  0B2   [6]  00 00 00 00 11 01
  can0  224   [8]  00 00 00 00 00 00 00 00
  can0  0B4   [8]  00 00 00 00 00 00 00 BC
  can0  0BA   [4]  06 00 00 C4
  can0  232   [4]  03 03 08 46
  can0  2D0   [8]  00 00 09 00 B0 9C 00 2F
  can0  3B7   [8]  00 00 00 00 00 00 00 00
  can0  260   [8]  0E 00 00 00 00 00 00 78
  can0  2C4   [8]  00 00 00 1D 40 80 40 EB
  can0  0B0   [6]  00 00 00 00 11 02
  can0  0B2   [6]  00 00 00 00 11 02
  can0  380   [8]  00 20 00 00 00 00 27 00
  can0  2C6   [8]  00 00 00 00 00 00 00 D0
  can0  0B4   [8]  00 00 00 00 00 00 00 BC
  can0  223   [8]  00 00 00 00 00 00 00 2D
  can0  262   [5]  00 00 00 00 69
  can0  2D5   [2]  00 00
  can0  0B0   [6]  00 00 00 00 11 03
  can0  0B2   [6]  00 00 00 00 11 03
  can0  224   [8]  00 00 00 00 00 00 00 00
  can0  2C1   [8]  08 06 48 08 70 F2 00 8B
  can0  260   [8]  0E 00 00 00 00 00 00 78
  can0  0B4   [8]  00 00 00 00 00 00 00 BC
  can0  0BA   [4]  06 00 00 C4
  can0  232   [4]  03 03 08 46
  can0  2C4   [8]  00 00 00 1D 40 80 40 EB
  can0  2C5   [4]  00 07 80 52
  can0  0B0   [6]  00 00 00 00 11 04
  can0  0B2   [6]  00 00 00 00 11 04
  can0  262   [5]  00 00 00 00 69
  can0  2D0   [8]  00 00 09 00 B0 9C 00 2F
  can0  3A1   [8]  00 00 00 00 00 00 00 00
  can0  0B4   [8]  00 00 00 00 00 00 00 BC
  can0  223   [8]  00 00 00 00 00 00 00 2D
  can0  2D5   [2]  00 00
  can0  2C6   [8]  00 00 00 00 00 00 00 D0
  can0  260   [8]  0E 00 00 00 00 00 00 78
  can0  0B0   [6]  00 00 00 00 11 05
  can0  0B2   [6]  00 00 00 00 11 05
  can0  224   [8]  00 00 00 00 00 00 00 00
  can0  0B4   [8]  00 00 00 00 00 00 00 BC
  can0  0BA   [4]  06 00 00 C4
  can0  232   [4]  03 03 08 46
  can0  262   [5]  00 00 00 00 69
  can0  2C1   [8]  08 06 48 08 70 F2 00 8B
  can0  2C4   [8]  00 00 00 1D 40 80 40 EB
  can0  0B0   [6]  00 00 00 00 11 06
  can0  0B2   [6]  00 00 00 00 11 06
  can0  0B4   [8]  00 00 00 00 00 00 00 BC
  can0  223   [8]  00 00 00 00 00 00 00 2D
  can0  2D5   [2]  00 00
  can0  260   [8]  0E 00 00 00 00 00 00 78
  can0  2D0   [8]  00 00 09 00 B0 9C 00 2F
  can0  440   [8]  42 02 00 00 00 00 00 00
  can0  0B0   [6]  00 00 00 00 11 07
  can0  0B2   [6]  00 00 00 00 11 07
  can0  224   [8]  00 00 00 00 00 00 00 00
  can0  262   [5]  00 00 00 00 69
  can0  2C6   [8]  00 00 00 00 00 00 00 D0
  can0  0B4   [8]  00 00 00 00 00 00 00 BC
  can0  0BA   [4]  06 00 00 C4
  can0  232   [4]  03 03 08 46
  can0  3A0   [8]  00 00 00 00 00 00 00 00
  can0  2C4   [8]  00 00 00 1D 40 80 40 EB
  can0  2C5   [4]  00 07 80 52
  can0  0B0   [6]  00 00 00 00 11 08
  can0  0B2   [6]  00 00 00 00 11 08
  can0  260   [8]  0E 00 00 00 00 00 00 78
  can0  2C1   [8]  08 06 48 08 70 F2 00 8B
  can0  0B4   [8]  00 00 00 00 00 00 00 BC
  can0  223   [8]  00 00 00 00 00 00 00 2D
  can0  2D5   [2]  00 00
  can0  7DF   [8]  02 01 04 00 00 00 00 00
  can0  7E8   [8]  03 41 04 00 00 00 00 00
  can0  0B0   [6]  00 00 00 00 11 09
  can0  0B2   [6]  00 00 00 00 11 09
  can0  224   [8]  00 00 00 00 00 00 00 00
  can0  262   [5]  00 00 00 00 69
  can0  2D0   [8]  00 00 09 00 B0 9C 00 2F
  can0  0B4   [8]  00 00 00 00 00 00 00 BC
  can0  0BA   [4]  06 00 00 C4
  can0  232   [4]  03 03 08 46
  can0  2C4   [8]  00 00 00 1D 40 80 40 EB
  can0  260   [8]  0E 00 00 00 00 00 00 78
  can0  0B0   [6]  00 00 00 00 11 0A
  can0  0B2   [6]  00 00 00 00 11 0A
  can0  2C6   [8]  00 00 00 00 00 00 00 D0
  can0  394   [1]  00
  can0  2D5   [2]  00 00
  can0  0B4   [8]  00 00 00 00 00 00 00 BC
  can0  223   [8]  00 00 00 00 00 00 00 2D
  can0  262   [5]  00 00 00 00 69
  can0  0B0   [6]  00 00 00 00 11 0B
  can0  0B2   [6]  00 00 00 00 11 0B
  can0  224   [8]  00 00 00 00 00 00 00 00
  can0  2C1   [8]  08 06 48 08 70 F2 00 8B
  can0  4C8   [8]  09 00 01 06 00 00 00 00
  can0  0B4   [8]  00 00 00 00 00 00 00 BC
  can0  0BA   [4]  06 00 00 C4
  can0  232   [4]  03 03 08 46
  can0  260   [8]  0E 00 00 00 00 00 00 78
  can0  2C4   [8]  00 00 00 1D 40 80 40 EB
  can0  2C5   [4]  00 07 80 52
  can0  0B0   [6]  00 00 00 00 11 0C
  can0  0B2   [6]  00 00 00 00 11 0C
  can0  2D0   [8]  00 00 09 00 B0 9C 00 2F
  can0  2D5   [2]  00 00
  can0  262   [5]  00 00 00 00 69
  can0  0B4   [8]  00 00 00 00 00 00 00 BC
  can0  223   [8]  00 00 00 00 00 00 00 2D
  can0  2C6   [8]  00 00 00 00 00 00 00 D0
  can0  0B0   [6]  00 00 00 00 11 0D
  can0  0B2   [6]  00 00 00 00 11 0D
  can0  224   [8]  00 00 00 00 00 00 00 00
  can0  260   [8]  0E 00 00 00 00 00 00 78
  can0  0B4   [8]  00 00 00 00 00 00 00 BC
  can0  0BA   [4]  06 00 00 C4
  can0  232   [4]  03 03 08 46
  can0  2C4   [8]  00 00 00 1D 40 80 40 EB
  can0  2C1   [8]  08 06 48 08 70 F2 00 8B
  can0  0B0   [6]  00 00 00 00 11 0E
  can0  0B2   [6]  00 00 00 00 11 0E
  can0  262   [5]  00 00 00 00 69
  can0  2D5   [2]  00 00
  can0  0B4   [8]  00 00 00 00 00 00 00 BC
  can0  223   [8]  00 00 00 00 00 00 00 2D
  can0  442   [8]  40 02 00 00 02 00 00 00
  can0  2D0   [8]  00 00 09 00 B0 9C 00 2F
  can0  260   [8]  0E 00 00 00 00 00 00 78
  can0  0B0   [6]  00 00 00 00 11 0F
  can0  0B2   [6]  00 00 00 00 11 0F
  can0  224   [8]  00 00 00 00 00 00 00 00
  can0  2C6   [8]  00 00 00 00 00 00 00 D0
  can0  0B4   [8]  00 00 00 00 00 00 00 BC
  can0  0BA   [4]  06 00 00 C4
  can0  232   [4]  03 03 08 46
  can0  2C4   [8]  00 00 00 1D 40 80 40 EB
  can0  262   [5]  00 00 00 00 69
  can0  2C5   [4]  00 07 80 52
  can0  0B0   [6]  00 00 00 00 11 00
  can0  0B2   [6]  00 00 00 00 11 00
  can0  3A0   [8]  00 00 00 00 00 00 00 00
  can0  2D5   [2]  00 00
  can0  2C1   [8]  08 06 48 08 70 F2 00 8B
  can0  0B4   [8]  00 00 00 00 00 00 00 BC
  can0  223   [8]  00 00 00 00 00 00 00 2D
  can0  260   [8]  0E 00 00 00 00 00 00 78
  can0  0B0   [6]  00 00 00 00 11 01
  can0  0B2   [6]  00 00 00 00 11 01
  can0  224   [8]  00 00 00 00 00 00 00 00
  can0  610   [8]  20 00 00 64 00 00 00 00
  can0  7DF   [8]  02 01 05 00 00 00 00 00
  can0  2D0   [8]  00 00 09 00 B0 9C 00 2F
  can0  262   [5]  00 00 00 00 69
  can0  7E8   [8]  03 41 05 41 00 00 00 00
  can0  0B4   [8]  00 00 00 00 00 00 00 BC
  can0  0BA   [4]  06 00 00 C4
  can0  232   [4]  03 03 08 46
  can0  2C4   [8]  00 00 00 1D 40 80 40 EB
  can0  611   [8]  21 00 00 10 00 03 C1 4F
  can0  2C6   [8]  00 00 00 00 00 00 00 D0
  can0  0B0   [6]  00 00 00 00 11 02
  can0  0B2   [6]  00 00 00 00 11 02
  can0  260   [8]  0E 00 00 00 00 00 00 78
  can0  2D5   [2]  00 00
  can0  0B4   [8]  00 00 00 00 00 00 00 BC
  can0  223   [8]  00 00 00 00 00 00 00 2D
  can0  640   [8]  A8 00 00 00 01 8A 00 00
  can0  2C1   [8]  08 06 48 08 70 F2 00 8B
  can0  0B0   [6]  00 00 00 00 11 03
  can0  0B2   [6]  00 00 00 00 11 03
  can0  224   [8]  00 00 00 00 00 00 00 00
  can0  262   [5]  00 00 00 00 69
  can0  3B3   [3]  00 00 28
  can0  0B4   [8]  00 00 00 00 00 00 00 BC
  can0  0BA   [4]  06 00 00 C4
  can0  232   [4]  03 03 08 46
  can0  2C4   [8]  00 00 00 1D 40 80 40 EB
  can0  2C5   [4]  00 07 80 52
  can0  260   [8]  0E 00 00 00 00 00 00 78
  can0  2D0   [8]  00 00 09 00 B0 9C 00 2F
  can0  0B0   [6]  00 00 00 00 11 04
  can0  0B2   [6]  00 00 00 00 11 04
  can0  2D5   [2]  00 00
  can0  0B4   [8]  00 00 00 00 00 00 00 BC
  can0  223   [8]  00 00 00 00 00 00 00 2D
  can0  4C3   [8]  04 00 12 07 00 00 00 00
  can0  2C6   [8]  00 00 00 00 00 00 00 D0
  can0  262   [5]  00 00 00 00 69
  can0  0B0   [6]  00 00 00 00 11 05
  can0  0B2   [6]  00 00 00 00 11 05
  can0  224   [8]  00 00 00 00 00 00 00 00
  can0  2C4   [8]  00 00 00 1D 40 80 40 EB
  can0  0B4   [8]  00 00 00 00 00 00 00 BC
  can0  0BA   [4]  05 FF 00 C2
  can0  232   [4]  03 03 08 46
  can0  260   [8]  0E 00 00 00 00 00 00 78
  can0  2C1   [8]  08 06 48 08 70 F2 00 8B
  can0  0B0   [6]  00 00 00 00 11 06
  can0  0B2   [6]  00 00 00 00 11 06
  can0  2D5   [2]  00 00
  can0  620   [8]  10 00 00 00 30 40 00 50
  can0  262   [5]  00 00 00 00 69
  can0  0B4   [8]  00 00 00 00 00 00 00 BC
  can0  223   [8]  00 00 00 00 00 00 00 2D
  can0  2D0   [8]  00 00 09 00 B0 9C 00 2F
  can0  440   [8]  42 02 00 00 00 00 00 00
  can0  0B0   [6]  00 00 00 00 11 07
  can0  0B2   [6]  00 00 00 00 11 07
  can0  224   [8]  00 00 00 00 00 00 00 00
  can0  260   [8]  0E 00 00 00 00 00 00 78
  can0  2C6   [8]  00 00 00 00 00 00 00 D0
  can0  2C4   [8]  00 00 00 1D 40 80 40 EB
  can0  0B4   [8]  00 00 00 00 00 00 00 BC
  can0  0BA   [4]  06 00 00 C4
  can0  232   [4]  03 03 08 46
  can0  2C5   [4]  00 07 80 52
  can0  262   [5]  00 00 00 00 69
  can0  0B0   [6]  00 00 00 00 11 08
  can0  0B2   [6]  00 00 00 00 11 08
  can0  2D5   [2]  00 00
  can0  2C1   [8]  08 06 48 08 70 F2 00 8B
  can0  3A0   [8]  00 00 00 00 00 00 00 00
  can0  0B4   [8]  00 00 00 00 00 00 00 BC
  can0  223   [8]  00 00 00 00 00 00 00 2D
  can0  260   [8]  0E 00 00 00 00 00 00 78
  can0  0B0   [6]  00 00 00 00 11 09
  can0  0B2   [6]  00 00 00 00 11 09
  can0  224   [8]  00 00 00 00 00 00 00 00
  can0  2D0   [8]  00 00 09 00 B0 9C 00 2F
  can0  2C4   [8]  00 00 00 1D 40 80 40 EB
  can0  0B4   [8]  00 00 00 00 00 00 00 BC
  can0  0BA   [4]  06 00 00 C4
  can0  232   [4]  03 03 08 46
  can0  262   [5]  00 00 00 00 69
  can0  7DF   [8]  02 01 0F 00 00 00 00 00
  can0  2C6   [8]  00 00 00 00 00 00 00 D0
  can0  7E8   [8]  03 41 0F 49 00 00 00 00
  can0  0B0   [6]  00 00 00 00 11 0A
  can0  0B2   [6]  00 00 00 00 11 0A
  can0  2D5   [2]  00 00
  can0  260   [8]  0E 00 00 00 00 00 00 78
  can0  0B4   [8]  00 00 00 00 00 00 00 BC
  can0  223   [8]  00 00 00 00 00 00 00 2D
  can0  3B7   [8]  00 00 00 00 00 00 00 00
  can0  2C1   [8]  08 06 48 08 70 F2 00 8B
  can0  0B0   [6]  00 00 00 00 11 0B
  can0  0B2   [6]  00 00 00 00 11 0B
  can0  224   [8]  00 00 00 00 00 00 00 00
  can0  2C4   [8]  00 00 00 1D 40 80 40 EB
  can0  262   [5]  00 00 00 00 69
  can0  0B4   [8]  00 00 00 00 00 00 00 BC
  can0  0BA   [4]  06 00 00 C4
  can0  232   [4]  03 03 08 46
  can0  2C5   [4]  00 07 80 52
  can0  2D0   [8]  00 00 09 00 B0 9C 00 2F
  can0  2D5   [2]  00 00
  can0  0B0   [6]  00 00 00 00 11 0C
  can0  0B2   [6]  00 00 00 00 11 0C
  can0  260   [8]  0E 00 00 00 00 00 00 78
  can0  2C6   [8]  00 00 00 00 00 00 00 D0
  can0  0B4   [8]  00 00 00 00 00 00 00 BC
  can0  223   [8]  00 00 00 00 00 00 00 2D
  can0  262   [5]  00 00 00 00 69
  can0  0B0   [6]  00 00 00 00 11 0D
  can0  0B2   [6]  00 00 00 00 11 0D
  can0  224   [8]  00 00 00 00 00 00 00 00
  can0  2C4   [8]  00 00 00 1D 40 80 40 EB
  can0  2C1   [8]  08 06 48 08 70 F2 00 8B
  can0  0B4   [8]  00 00 00 00 00 00 00 BC
  can0  0BA   [4]  06 00 00 C4
  can0  232   [4]  03 03 08 46
  can0  260   [8]  0E 00 00 00 00 00 00 78
  can0  2D5   [2]  00 00
  can0  0B0   [6]  00 00 00 00 11 0E
  can0  0B2   [6]  00 00 00 00 11 0E
  can0  621   [8]  11 00 00 00 00 00 00 00
  can0  442   [8]  40 02 00 00 02 00 00 00
  can0  2D0   [8]  00 00 09 00 B0 9C 00 2F
  can0  0B4   [8]  00 00 00 00 00 00 00 BC
  can0  223   [8]  00 00 00 00 00 00 00 2D
  can0  262   [5]  00 00 00 00 69
  can0  622   [8]  12 00 00 00 00 00 00 00
  can0  0B0   [6]  00 00 00 00 11 0F
  can0  0B2   [6]  00 00 00 00 11 0F
  can0  224   [8]  00 00 00 00 00 00 00 00
  can0  2C6   [8]  00 00 00 00 00 00 00 D0
  can0  2C4   [8]  00 00 00 1D 40 80 40 EB
  can0  260   [8]  0E 00 00 00 00 00 00 78
  can0  0B4   [8]  00 00 00 00 00 00 00 BC
  can0  0BA   [4]  06 00 00 C4
  can0  232   [4]  03 03 08 46
  can0  2C5   [4]  00 07 80 52
  can0  624   [8]  1A 00 00 49 49 00 00 00
  can0  2D5   [2]  00 00
  can0  0B0   [6]  00 00 00 00 11 00
  can0  0B2   [6]  00 00 00 00 11 00
  can0  2C1   [8]  08 06 48 08 70 F2 00 8B
  can0  262   [5]  00 00 00 00 69
  can0  0B4   [8]  00 00 00 00 00 00 00 BC
  can0  223   [8]  00 00 00 00 00 00 00 2D
  can0  3A0   [8]  00 00 00 00 00 00 00 00
  can0  630   [8]  17 00 00 00 00 00 00 00
  can0  0B0   [6]  00 00 00 00 11 01
  can0  0B2   [6]  00 00 00 00 11 01
  can0  224   [8]  00 00 00 00 00 00 00 00
  can0  2D0   [8]  00 00 09 00 B0 9C 00 2F
  can0  260   [8]  0E 00 00 00 00 00 00 78
  can0  2C4   [8]  00 00 00 1D 40 80 40 EB
  can0  0B4   [8]  00 00 00 00 00 00 00 BC
  can0  0BA   [4]  06 00 00 C4
  can0  232   [4]  03 03 08 46
  can0  638   [8]  13 00 10 00 00 00 00 00
  can0  2C6   [8]  00 00 00 00 00 00 00 D0
  can0  2D5   [2]  00 00
  can0  262   [5]  00 00 00 00 69
  can0  0B0   [6]  00 00 00 00 11 02
  can0  0B2   [6]  00 00 00 00 11 02
  can0  7DF   [8]  02 01 0B 00 00 00 00 00
  can0  0B4   [8]  00 00 00 00 00 00 00 BC
  can0  223   [8]  00 00 00 00 00 00 00 2D
  can0  260   [8]  0E 00 00 00 00 00 00 78
  can0  2C1   [8]  08 06 48 08 70 F2 00 8B
  can0  0B0   [6]  00 00 00 00 11 03
  can0  0B2   [6]  00 00 00 00 11 03
  can0  224   [8]  00 00 00 00 00 00 00 00
  can0  2C4   [8]  00 00 00 1D 40 80 40 EB
  can0  394   [1]  00
  can0  0B4   [8]  00 00 00 00 00 00 00 BC
  can0  0BA   [4]  06 00 00 C4
  can0  232   [4]  03 03 08 46
  can0  262   [5]  00 00 00 00 69
  can0  2D0   [8]  00 00 09 00 B0 9C 00 2F
  can0  2C5   [4]  00 07 80 52
  can0  2D5   [2]  00 00
  can0  0B0   [6]  00 00 00 00 11 04
  can0  0B2   [6]  00 00 00 00 11 04
  can0  2C6   [8]  00 00 00 00 00 00 00 D0
  can0  260   [8]  0E 00 00 00 00 00 00 78
  can0  0B4   [8]  00 00 00 00 00 00 00 BC
  can0  223   [8]  00 00 00 00 00 00 00 2D
  can0  4C1   [8]  01 00 09 08 00 00 00 00
  can0  0B0   [6]  00 00 00 00 11 05
  can0  0B2   [6]  00 00 00 00 11 05
  can0  224   [8]  00 00 00 00 00 00 00 00
  can0  2C4   [8]  00 00 00 1D 40 80 40 EB
  can0  262   [5]  00 00 00 00 69
  can0  2C1   [8]  08 06 48 08 70 F2 00 8B
  can0  0B4   [8]  00 00 00 00 00 00 00 BC
  can0  0BA   [4]  06 00 00 C4
  can0  232   [4]  03 03 08 46
  can0  2D5   [2]  00 00
  can0  0B0   [6]  00 00 00 00 11 06
  can0  0B2   [6]  00 00 00 00 11 06
  can0  260   [8]  0E 00 00 00 00 00 00 78
  can0  2D0   [8]  00 00 09 00 B0 9C 00 2F
  can0  440   [8]  42 02 00 00 00 00 00 00
  can0  0B4   [8]  00 00 00 00 00 00 00 BC
  can0  223   [8]  00 00 00 00 00 00 00 2D
  can0  3B4   [8]  00 00 32 4C 80 00 00 00
  can0  262   [5]  00 00 00 00 69
  can0  0B0   [6]  00 00 00 00 11 07
  can0  0B2   [6]  00 00 00 00 11 07
  can0  224   [8]  00 00 00 00 00 00 00 00
  can0  2C4   [8]  00 00 00 1D 40 80 40 EB
  can0  2C6   [8]  00 00 00 00 00 00 00 D0
  can0  0B4   [8]  00 00 00 00 00 00 00 BC
  can0  0BA   [4]  06 00 00 C4
  can0  232   [4]  03 03 08 46
  can0  2D5   [2]  00 00
  can0  260   [8]  0E 00 00 00 00 00 00 78
  can0  2C5   [4]  00 07 80 52
  can0  0B0   [6]  00 00 00 00 11 08
  can0  0B2   [6]  00 00 00 00 11 08
  can0  2C1   [8]  08 06 48 08 70 F2 00 8B
  can0  0B4   [8]  00 00 00 00 00 00 00 BC
  can0  223   [8]  00 00 00 00 00 00 00 2D
  can0  262   [5]  00 00 00 00 69
  can0  3A0   [8]  00 00 00 00 00 00 00 00
  can0  2C4   [8]  00 00 00 1D 40 80 40 EB
  can0  2D0   [8]  00 00 09 00 B0 9C 00 2F
  can0  0B0   [6]  00 00 00 00 11 09
  can0  0B2   [6]  00 00 00 00 11 09
  can0  224   [8]  00 00 00 00 00 00 00 00
  can0  260   [8]  0E 00 00 00 00 00 00 78
  can0  0B4   [8]  00 00 00 00 00 00 00 BC
  can0  0BA   [4]  06 00 00 C4
  can0  232   [4]  03 03 08 46
  can0  2C6   [8]  00 00 00 00 00 00 00 D0
  can0  2D5   [2]  00 00
  can0  0B0   [6]  00 00 00 00 11 0A
  can0  0B2   [6]  00 00 00 00 11 0A
  can0  262   [5]  00 00 00 00 69
  can0  0B4   [8]  00 00 00 00 00 00 00 BC
  can0  223   [8]  00 00 00 00 00 00 00 2D
  can0  2C1   [8]  08 06 48 08 70 F2 00 8B
  can0  2C4   [8]  00 00 00 1D 40 80 40 EB
  can0  0B0   [6]  00 00 00 00 11 0B
  can0  0B2   [6]  00 00 00 00 11 0B
  can0  224   [8]  00 00 00 00 00 00 00 00
  can0  260   [8]  0E 00 00 00 00 00 00 78
  can0  0B4   [8]  00 00 00 00 00 00 00 BC
  can0  0BA   [4]  06 00 00 C4
  can0  232   [4]  03 03 08 46
  can0  2D0   [8]  00 00 09 00 B0 9C 00 2F
  can0  2D5   [2]  00 00
  can0  2C5   [4]  00 07 80 52
  can0  262   [5]  00 00 00 00 69
  can0  0B0   [6]  00 00 00 00 11 0C
  can0  0B2   [6]  00 00 00 00 11 0C
  can0  2C6   [8]  00 00 00 00 00 00 00 D0
  can0  0B4   [8]  00 00 00 00 00 00 00 BC
  can0  223   [8]  00 00 00 00 00 00 00 2D
  can0  260   [8]  0E 00 00 00 00 00 00 78
  can0  2C4   [8]  00 00 00 1D 40 80 40 EB
  can0  0B0   [6]  00 00 00 00 11 0D
  can0  0B2   [6]  00 00 00 00 11 0D
  can0  224   [8]  00 00 00 00 00 00 00 00
  can0  2C1   [8]  08 06 48 08 70 F2 00 8B
  can0  262   [5]  00 00 00 00 69
  can0  0B4   [8]  00 00 00 00 00 00 00 BC
  can0  0BA   [4]  06 00 00 C4
  can0  232   [4]  03 03 08 46
  can0  2D5   [2]  00 00
  can0  0B0   [6]  00 00 00 00 11 0E
  can0  0B2   [6]  00 00 00 00 11 0E
  can0  2D0   [8]  00 00 09 00 B0 9C 00 2F
  can0  260   [8]  0E 00 00 00 00 00 00 78
  can0  0B4   [8]  00 00 00 00 00 00 00 BC
  can0  223   [8]  00 00 00 00 00 00 00 2D
  can0  442   [8]  40 02 00 00 02 00 00 00
  can0  2C4   [8]  00 00 00 1D 40 80 40 EB
  can0  2C6   [8]  00 00 00 00 00 00 00 D0
  can0  0B0   [6]  00 00 00 00 11 0F
  can0  0B2   [6]  00 00 00 00 11 0F
  can0  224   [8]  00 00 00 00 00 00 00 00
  can0  262   [5]  00 00 00 00 69
  can0  620   [8]  10 00 00 00 30 40 00 50
  can0  2D5   [2]  00 00
  can0  0B4   [8]  00 00 00 00 00 00 00 BC
  can0  0BA   [4]  06 00 00 C4
  can0  232   [4]  03 03 08 46
  can0  2C5   [4]  00 07 80 52
  can0  2C1   [8]  08 06 48 08 70 F2 00 8B
  can0  260   [8]  0E 00 00 00 00 00 00 78
  can0  0B0   [6]  00 00 00 00 11 00
  can0  0B2   [6]  00 00 00 00 11 00
  can0  0B4   [8]  00 00 00 00 00 00 00 BC
  can0  223   [8]  00 00 00 00 00 00 00 2D
  can0  2C4   [8]  00 00 00 1D 40 80 40 EB
  can0  262   [5]  00 00 00 00 69
  can0  2D0   [8]  00 00 09 00 B0 9C 00 2F
  can0  0B0   [6]  00 00 00 00 11 01
  can0  0B2   [6]  00 00 00 00 11 01
  can0  224   [8]  00 00 00 00 00 00 00 00
  can0  3A0   [8]  00 00 00 00 00 00 00 00
  can0  2D5   [2]  00 00
  can0  0B4   [8]  00 00 00 00 00 00 00 BC
  can0  0BA   [4]  06 00 00 C4
  can0  232   [4]  03 03 08 46
  can0  2C6   [8]  00 00 00 00 00 00 00 D0
  can0  260   [8]  0E 00 00 00 00 00 00 78
  can0  0B0   [6]  00 00 00 00 11 02
  can0  0B2   [6]  00 00 00 00 11 02
  can0  3B1   [8]  00 00 02 2A A0 00 00 00
  can0  262   [5]  00 00 00 00 69
  can0  0B4   [8]  00 00 00 00 00 00 00 BC
  can0  223   [8]  00 00 00 00 00 00 00 2D
  can0  2C1   [8]  08 06 48 08 70 F2 00 8B
  can0  2C4   [8]  00 00 00 1D 40 80 40 EB
  can0  0B0   [6]  00 00 00 00 11 03
  can0  0B2   [6]  00 00 00 00 11 03
  can0  224   [8]  00 00 00 00 00 00 00 00
  can0  260   [8]  0E 00 00 00 00 00 00 78
  can0  2D5   [2]  00 00
  can0  2D0   [8]  00 00 09 00 B0 9C 00 2F
  can0  0B4   [8]  00 00 00 00 00 00 00 BC
  can0  0BA   [4]  06 00 00 C4
  can0  232   [4]  03 03 08 46
  can0  3B7   [8]  00 00 00 00 00 00 00 00
  can0  2C5   [4]  00 07 80 52
  can0  0B0   [6]  00 00 00 00 11 04
  can0  0B2   [6]  00 00 00 00 11 04
  can0  262   [5]  00 00 00 00 69
  can0  2C6   [8]  00 00 00 00 00 00 00 D0
  can0  0B4   [8]  00 00 00 00 00 00 00 BC
  can0  223   [8]  00 00 00 00 00 00 00 2D
  can0  2C4   [8]  00 00 00 1D 40 80 40 EB
  can0  260   [8]  0E 00 00 00 00 00 00 78
  can0  0B0   [6]  00 00 00 00 11 05
  can0  0B2   [6]  00 00 00 00 11 05
  can0  224   [8]  00 00 00 00 00 00 00 00
  can0  2C1   [8]  08 06 48 08 70 F2 00 8B
  can0  2D5   [2]  00 00
  can0  0B4   [8]  00 00 00 00 00 00 00 BC
  can0  0BA   [4]  06 00 00 C4
  can0  232   [4]  03 03 08 46
  can0  262   [5]  00 00 00 00 69
  can0  0B0   [6]  00 00 00 00 11 06
  can0  0B2   [6]  00 00 00 00 11 06
  can0  2D0   [8]  00 00 09 00 B0 9C 00 2F
  can0  0B4   [8]  00 00 00 00 00 00 00 BC
  can0  223   [8]  00 00 00 00 00 00 00 2D
  can0  260   [8]  0E 00 00 00 00 00 00 78
  can0  2C4   [8]  00 00 00 1D 40 80 40 EB
  can0  2C6   [8]  00 00 00 00 00 00 00 D0
  can0  0B0   [6]  00 00 00 00 11 07
  can0  0B2   [6]  00 00 00 00 11 07
  can0  224   [8]  00 00 00 00 00 00 00 00
  can0  440   [8]  42 02 00 00 00 00 00 00
  can0  2D5   [2]  00 00
  can0  262   [5]  00 00 00 00 69
  can0  0B4   [8]  00 00 00 00 00 00 00 BC
  can0  0BA   [4]  06 00 00 C4
  can0  232   [4]  03 03 08 46
  can0  2C5   [4]  00 07 80 52
  can0  2C1   [8]  08 06 48 08 70 F2 00 8B
  can0  0B0   [6]  00 00 00 00 11 08
  can0  0B2   [6]  00 00 00 00 11 08
  can0  260   [8]  0E 00 00 00 00 00 00 78
  can0  0B4   [8]  00 00 00 00 00 00 00 BC
  can0  223   [8]  00 00 00 00 00 00 00 2D
  can0  2C4   [8]  00 00 00 1D 40 80 40 EB
  can0  2D0   [8]  00 00 09 00 B0 9C 00 2F
  can0  0B0   [6]  00 00 00 00 11 09
  can0  0B2   [6]  00 00 00 00 11 09
  can0  224   [8]  00 00 00 00 00 00 00 00
  can0  262   [5]  00 00 00 00 69
  can0  2D5   [2]  00 00
  can0  2C6   [8]  00 00 00 00 00 00 00 D0
  can0  3A0   [8]  00 00 00 00 00 00 00 00
  can0  0B4   [8]  00 00 00 00 00 00 00 BC
  can0  0BA   [4]  06 00 00 C4
  can0  232   [4]  03 03 08 46
  can0  260   [8]  0E 00 00 00 00 00 00 78
  can0  0B0   [6]  00 00 00 00 11 0A
  can0  0B2   [6]  00 00 00 00 11 0A
  can0  610   [8]  20 00 00 64 00 00 00 00
  can0  2C1   [8]  08 06 48 08 70 F2 00 8B
  can0  0B4   [8]  00 00 00 00 00 00 00 BC
  can0  223   [8]  00 00 00 00 00 00 00 2D
  can0  2C4   [8]  00 00 00 1D 40 80 40 EB
  can0  262   [5]  00 00 00 00 69
  can0  0B0   [6]  00 00 00 00 11 0B
  can0  0B2   [6]  00 00 00 00 11 0B
  can0  224   [8]  00 00 00 00 00 00 00 00
  can0  2D5   [2]  00 00
  can0  2D0   [8]  00 00 09 00 B0 9C 00 2F
  can0  0B4   [8]  00 00 00 00 00 00 00 BC
  can0  0BA   [4]  06 00 00 C4
  can0  232   [4]  03 03 08 46
  can0  260   [8]  0E 00 00 00 00 00 00 78
  can0  2C5   [4]  00 07 80 52
  can0  394   [1]  00
  can0  0B0   [6]  00 00 00 00 11 0C
  can0  0B2   [6]  00 00 00 00 11 0C
  can0  2C6   [8]  00 00 00 00 00 00 00 D0
  can0  262   [5]  00 00 00 00 69
  can0  2C4   [8]  00 00 00 1D 40 80 40 EB
  can0  0B4   [8]  00 00 00 00 00 00 00 BC
  can0  223   [8]  00 00 00 00 00 00 00 2D
  can0  0B0   [6]  00 00 00 00 11 0D
  can0  0B2   [6]  00 00 00 00 11 0D
  can0  224   [8]  00 00 00 00 00 00 00 00
  can0  2C1   [8]  08 06 48 08 70 F2 00 8B
  can0  2D5   [2]  00 00
  can0  260   [8]  0E 00 00 00 00 00 00 78
  can0  3B3   [3]  00 00 28
  can0  0B4   [8]  00 00 00 00 00 00 00 BC
  can0  0BA   [4]  06 00 00 C4
  can0  232   [4]  03 03 08 46
  can0  2D0   [8]  00 00 09 00 B0 9C 00 2F
  can0  0B0   [6]  00 00 00 00 11 0E
  can0  0B2   [6]  00 00 00 00 11 0E
  can0  262   [5]  00 00 00 00 69
  can0  2C4   [8]  00 00 00 1D 40 80 40 EB
  can0  0B4   [8]  00 00 00 00 00 00 00 BC
  can0  223   [8]  00 00 00 00 00 00 00 2D
  can0  2C6   [8]  00 00 00 00 00 00 00 D0
  can0  260   [8]  0E 00 00 00 00 00 00 78
  can0  0B0   [6]  00 00 00 00 11 0F
  can0  0B2   [6]  00 00 00 00 11 0F
  can0  224   [8]  00 00 00 00 00 00 00 00
  can0  2D5   [2]  00 00
  can0  7DF   [8]  02 01 10 00 00 00 00 00
  can0  442   [8]  40 02 00 00 02 00 00 00
  can0  0B4   [8]  00 00 00 00 00 00 00 BC
  can0  0BA   [4]  06 00 00 C4
  can0  232   [4]  03 03 08 46
  can0  7E8   [8]  04 41 10 00 07 00 00 00
  can0  2C1   [8]  08 06 48 08 70 F2 00 8B
  can0  262   [5]  00 00 00 00 69
  can0  2C5   [4]  00 07 80 52
  can0  0B0   [6]  00 00 00 00 11 00
  can0  0B2   [6]  00 00 00 00 11 00
  can0  2C4   [8]  00 00 00 1D 40 80 40 EB
  can0  0B4   [8]  00 00 00 00 00 00 00 BC
  can0  223   [8]  00 00 00 00 00 00 00 2D
  can0  260   [8]  0E 00 00 00 00 00 00 78
  can0  2D0   [8]  00 00 09 00 B0 9C 00 2F
  can0  0B0   [6]  00 00 00 00 11 01
  can0  0B2   [6]  00 00 00 00 11 01
  can0  224   [8]  00 00 00 00 00 00 00 00
  can0  2D5   [2]  00 00
  can0  2C6   [8]  00 00 00 00 00 00 00 D0
  can0  262   [5]  00 00 00 00 69
  can0  0B4   [8]  00 00 00 00 00 00 00 BC
  can0  0BA   [4]  06 00 00 C4
  can0  232   [4]  03 03 08 46
  can0  3A0   [8]  00 00 00 00 00 00 00 00
  can0  0B0   [6]  00 00 00 00 11 02
  can0  0B2   [6]  00 00 00 00 11 02
  can0  260   [8]  0E 00 00 00 00 00 00 78
  can0  2C1   [8]  08 06 48 08 70 F2 00 8B
  can0  2C4   [8]  00 00 00 1D 40 80 40 EB
  can0  0B4   [8]  00 00 00 00 00 00 00 BC
  can0  223   [8]  00 00 00 00 00 00 00 2D
  can0  0B0   [6]  00 00 00 00 11 03
  can0  0B2   [6]  00 00 00 00 11 03
  can0  224   [8]  00 00 00 00 00 00 00 00
  can0  262   [5]  00 00 00 00 69
  can0  2D5   [2]  00 00
  can0  2D0   [8]  00 00 09 00 B0 9C 00 2F
  can0  0B4   [8]  00 00 00 00 00 00 00 BC
  can0  0BA   [4]  06 00 00 C4
  can0  232   [4]  03 03 08 46
  can0  2C5   [4]  00 07 80 52
  can0  260   [8]  0E 00 00 00 00 00 00 78
  can0  2C6   [8]  00 00 00 00 00 00 00 D0
  can0  0B0   [6]  00 00 00 00 11 04
  can0  0B2   [6]  00 00 00 00 11 04
  can0  2C4   [8]  00 00 00 1D 40 80 40 EB
  can0  0B4   [8]  00 00 00 00 00 00 00 BC
  can0  223   [8]  00 00 00 00 00 00 00 2D
  can0  262   [5]  00 00 00 00 69
  can0  2C1   [8]  08 06 48 08 70 F2 00 8B
  can0  2D5   [2]  00 00
  can0  0B0   [6]  00 00 00 00 11 05
  can0  0B2   [6]  00 00 00 00 11 05
  can0  224   [8]  00 00 00 00 00 00 00 00
  can0  0B4   [8]  00 00 00 00 00 00 00 BC
  can0  0BA   [4]  06 00 00 C4
  can0  232   [4]  03 03 08 46
  can0  260   [8]  0E 00 00 00 00 00 00 78
  can0  2D0   [8]  00 00 09 00 B0 9C 00 2F
  can0  0B0   [6]  00 00 00 00 11 06
  can0  0B2   [6]  00 00 00 00 11 06
  can0  2C4   [8]  00 00 00 1D 40 80 40 EB
  can0  262   [5]  00 00 00 00 69
  can0  0B4   [8]  00 00 00 00 00 00 00 BC
  can0  223   [8]  00 00 00 00 00 00 00 2D
  can0  2C6   [8]  00 00 00 00 00 00 00 D0
  can0  2D5   [2]  00 00
  can0  0B0   [6]  00 00 00 00 11 07
  can0  0B2   [6]  00 00 00 00 11 07
  can0  224   [8]  00 00 00 00 00 00 00 00
  can0  260   [8]  0E 00 00 00 00 00 00 78
  can0  0B4   [8]  00 00 00 00 00 00 00 BC
  can0  0BA   [4]  06 00 00 C4
  can0  232   [4]  03 03 08 46
  can0  2C1   [8]  08 06 48 08 70 F2 00 8B
  can0  2C5   [4]  00 07 80 52
  can0  440   [8]  42 02 00 00 00 00 00 00
  can0  7DF   [8]  02 01 11 00 00 00 00 00
  can0  262   [5]  00 00 00 00 69
  can0  0B0   [6]  00 00 00 00 11 08
  can0  0B2   [6]  00 00 00 00 11 08
  can0  7E8   [8]  03 41 11 30 00 00 00 00
  can0  620   [8]  10 00 00 00 30 40 00 50
  can0  2C4   [8]  00 00 00 1D 40 80 40 EB
  can0  0B4   [8]  00 00 00 00 00 00 00 BC
  can0  223   [8]  00 00 00 00 00 00 00 2D
  can0  2D0   [8]  00 00 09 00 B0 9C 00 2F
  can0  260   [8]  0E 00 00 00 00 00 00 78
  can0  2D5   [2]  00 00
  can0  0B0   [6]  00 00 00 00 11 09
  can0  0B2   [6]  00 00 00 00 11 09
  can0  224   [8]  00 00 00 00 00 00 00 00
  can0  2C6   [8]  00 00 00 00 00 00 00 D0
  can0  0B4   [8]  00 00 00 00 00 00 00 BC
  can0  0BA   [4]  06 00 00 C4
  can0  232   [4]  03 03 08 46
  can0  262   [5]  00 00 00 00 69
  can0  3A0   [8]  00 00 00 00 00 00 00 00
  can0  0B0   [6]  00 00 00 00 11 0A
  can0  0B2   [6]  00 00 00 00 11 0A
  can0  2C4   [8]  00 00 00 1D 40 80 40 EB
  can0  2C1   [8]  08 06 48 08 70 F2 00 8B
  can0  260   [8]  0E 00 00 00 00 00 00 78
  can0  0B4   [8]  00 00 00 00 00 00 00 BC
  can0  223   [8]  00 00 00 00 00 00 00 2D
  can0  2D5   [2]  00 00
  can0  0B0   [6]  00 00 00 00 11 0B
  can0  0B2   [6]  00 00 00 00 11 0B
  can0  224   [8]  00 00 00 00 00 00 00 00
  can0  2D0   [8]  00 00 09 00 B0 9C 00 2F
  can0  262   [5]  00 00 00 00 69
  can0  0B4   [8]  00 00 00 00 00 00 00 BC
  can0  0BA   [4]  06 00 00 C4
  can0  232   [4]  03 03 08 46
  can0  2C5   [4]  00 07 80 52
  can0  2C6   [8]  00 00 00 00 00 00 00 D0
  can0  0B0   [6]  00 00 00 00 11 0C
  can0  0B2   [6]  00 00 00 00 11 0C
  can0  2C4   [8]  00 00 00 1D 40 80 40 EB
  can0  260   [8]  0E 00 00 00 00 00 00 78
  can0  4DC   [8]  1D 00 01 07 00 00 00 00
  can0  0B4   [8]  00 00 00 00 00 00 00 BC
  can0  223   [8]  00 00 00 00 00 00 00 2D
  can0  3B7   [8]  00 00 00 00 00 00 00 00
  can0  2D5   [2]  00 00
  can0  2C1   [8]  08 06 48 08 70 F2 00 8B
  can0  262   [5]  00 00 00 00 69
  can0  0B0   [6]  00 00 00 00 11 0D
  can0  0B2   [6]  00 00 00 00 11 0D
  can0  224   [8]  00 00 00 00 00 00 00 00
  can0  0B4   [8]  00 00 00 00 00 00 00 BC
  can0  0BA   [4]  06 00 00 C4
  can0  232   [4]  03 03 08 46
  can0  260   [8]  0E 00 00 00 00 00 00 78
  can0  2D0   [8]  00 00 09 00 B0 9C 00 2F
  can0  0B0   [6]  00 00 00 00 11 0E
  can0  0B2   [6]  00 00 00 00 11 0E
  can0  2C4   [8]  00 00 00 1D 40 80 40 EB
  can0  2C6   [8]  00 00 00 00 00 00 00 D0
  can0  0B4   [8]  00 00 00 00 00 00 00 BC
  can0  223   [8]  00 00 00 00 00 00 00 2D
  can0  262   [5]  00 00 00 00 69
  can0  2D5   [2]  00 00
  can0  0B0   [6]  00 00 00 00 11 0F
  can0  0B2   [6]  00 00 00 00 11 0F
  can0  224   [8]  00 00 00 00 00 00 00 00
  can0  260   [8]  0E 00 00 00 00 00 00 78
  can0  2C1   [8]  08 06 48 08 70 F2 00 8B
  can0  0B4   [8]  00 00 00 00 00 00 00 BC
  can0  0BA   [4]  06 00 00 C4
  can0  232   [4]  03 03 08 46
  can0  2C5   [4]  00 07 80 52
  can0  3B0   [5]  00 00 00 48 00
  can0  442   [8]  40 02 00 00 02 00 00 00
  can0  2C4   [8]  00 00 00 1D 40 80 40 EB
  can0  0B0   [6]  00 00 00 00 11 00
  can0  0B2   [6]  00 00 00 00 11 00
  can0  262   [5]  00 00 00 00 69
  can0  7DF   [8]  02 01 0E 00 00 00 00 00
  can0  2D0   [8]  00 00 09 00 B0 9C 00 2F
  can0  7E8   [8]  03 41 0E 8A 00 00 00 00
  can0  0B4   [8]  00 00 00 00 00 00 00 BC
  can0  223   [8]  00 00 00 00 00 00 00 2D
  can0  2D5   [2]  00 00
  can0  0B0   [6]  00 00 00 00 11 01
  can0  0B2   [6]  00 00 00 00 11 01
  can0  224   [8]  00 00 00 00 00 00 00 00
  can0  260   [8]  0E 00 00 00 00 00 00 78
  can0  2C6   [8]  00 00 00 00 00 00 00 D0
  can0  0B4   [8]  00 00 00 00 00 00 00 BC
  can0  0BA   [4]  06 00 00 C4
  can0  232   [4]  03 03 08 46
  can0  262   [5]  00 00 00 00 69
  can0  2C4   [8]  00 00 00 1D 40 80 40 EB
  can0  0B0   [6]  00 00 00 00 11 02
  can0  0B2   [6]  00 00 00 00 11 02
  can0  4DD   [8]  1E 00 00 05 00 00 00 00
  can0  2C1   [8]  08 06 48 08 70 F2 00 8B
  can0  3A0   [8]  00 00 00 00 00 00 00 00
  can0  0B4   [8]  00 00 00 00 00 00 00 BC
  can0  223   [8]  00 00 00 00 00 00 00 2D
  can0  2D5   [2]  00 00
  can0  38A   [5]  0C 04 00 00 00
  can0  260   [8]  0E 00 00 00 00 00 00 78
  can0  0B0   [6]  00 00 00 00 11 03
  can0  0B2   [6]  00 00 00 00 11 03
  can0  224   [8]  00 00 00 00 00 00 00 00
  can0  2D0   [8]  00 00 09 00 B0 9C 00 2F
  can0  0B4   [8]  00 00 00 00 00 00 00 BC
  can0  0BA   [4]  06 00 00 C4
  can0  232   [4]  03 03 08 46
  can0  262   [5]  00 00 00 00 69
  can0  2C5   [4]  00 07 80 52
  can0  2C6   [8]  00 00 00 00 00 00 00 D0
  can0  2C4   [8]  00 00 00 1D 40 80 40 EB
  can0  0B0   [6]  00 00 00 00 11 04
  can0  0B2   [6]  00 00 00 00 11 04
  can0  260   [8]  0E 00 00 00 00 00 00 78
  can0  0B4   [8]  00 00 00 00 00 00 00 BC
  can0  223   [8]  00 00 00 00 00 00 00 2D
  can0  2D5   [2]  00 00
  can0  2C1   [8]  08 06 48 08 70 F2 00 8B
  can0  394   [1]  00
  can0  380   [8]  00 20 00 00 00 00 27 00
  can0  0B0   [6]  00 00 00 00 11 05
  can0  0B2   [6]  00 00 00 00 11 05
  can0  224   [8]  00 00 00 00 00 00 00 00
  can0  262   [5]  00 00 00 00 69
  can0  0B4   [8]  00 00 00 00 00 00 00 BC
  can0  0BA   [4]  06 00 00 C4
  can0  232   [4]  03 03 08 46
  can0  2D0   [8]  00 00 09 00 B0 9C 00 2F
  can0  2C4   [8]  00 00 00 1D 40 80 40 EB
  can0  0B0   [6]  00 00 00 00 11 06
  can0  0B2   [6]  00 00 00 00 11 06
  can0  260   [8]  0E 00 00 00 00 00 00 78
  can0  2C6   [8]  00 00 00 00 00 00 00 D0
  can0  0B4   [8]  00 00 00 00 00 00 00 BC
  can0  223   [8]  00 00 00 00 00 00 00 2D
  can0  2D5   [2]  00 00
  can0  262   [5]  00 00 00 00 69
  can0  0B0   [6]  00 00 00 00 11 07
  can0  0B2   [6]  00 00 00 00 11 07
  can0  224   [8]  00 00 00 00 00 00 00 00
  can0  3A1   [8]  00 00 00 00 00 00 00 00
  can0  2C1   [8]  08 06 48 08 70 F2 00 8B
  can0  0B4   [8]  00 00 00 00 00 00 00 BC
  can0  0BA   [4]  06 00 00 C4
  can0  232   [4]  03 03 08 46
  can0  2C5   [4]  00 07 80 52
  can0  260   [8]  0E 00 00 00 00 00 00 78
  can0  2C4   [8]  00 00 00 1D 40 80 40 EB
  can0  440   [8]  42 02 00 00 00 00 00 00
  can0  0B0   [6]  00 00 00 00 11 08
  can0  0B2   [6]  00 00 00 00 11 08
  can0  2D0   [8]  00 00 09 00 B0 9C 00 2F
  can0  2D5   [2]  00 00
  can0  0B4   [8]  00 00 00 00 00 00 00 BC
  can0  223   [8]  00 00 00 00 00 00 00 2D
  can0  262   [5]  00 00 00 00 69
  can0  7DF   [8]  02 01 06 00 00 00 00 00
  can0  2C6   [8]  00 00 00 00 00 00 00 D0
  can0  7E8   [8]  03 41 06 80 00 00 00 00
  can0  0B0   [6]  00 00 00 00 11 09
  can0  0B2   [6]  00 00 00 00 11 09
  can0  224   [8]  00 00 00 00 00 00 00 00
  can0  260   [8]  0E 00 00 00 00 00 00 78
  can0  0B4   [8]  00 00 00 00 00 00 00 BC
  can0  0BA   [4]  06 00 00 C4
  can0  232   [4]  03 03 08 46
  can0  2C4   [8]  00 00 00 1D 40 80 40 EB
  can0  2C1   [8]  08 06 48 08 70 F2 00 8B
  can0  0B0   [6]  00 00 00 00 11 0A
  can0  0B2   [6]  00 00 00 00 11 0A
  can0  262   [5]  00 00 00 00 69
  can0  2D5   [2]  00 00
  can0  0B4   [8]  00 00 00 00 00 00 00 BC
  can0  223   [8]  00 00 00 00 00 00 00 2D
  can0  3A0   [8]  00 00 00 00 00 00 00 00
  can0  2D0   [8]  00 00 09 00 B0 9C 00 2F
